date dom mar 10 5:18:24.666  2024
base hex  timestamps absolute
no internal event logging
// version 11.0.0
  0.000000 1  1A6         Rx d 8  04  00  00  00  3F  01  00  1F  
  0.000000 1  221         Rx d 4  FE  FE  00  18  
  0.000000 1  294         Rx d 8  00  16  00  00  F3  AE  00  17  
  0.000000 1  295         Rx d 4  00  00  00  17  
  0.000000 1  309         Rx d 8  00  00  00  00  00  00  00  57  
  0.000000 1  372         Rx d 2  18  12  
  0.000000 1  374         Rx d 7  00  00  00  00  00  00  19  
  0.000000 1  378         Rx d 8  00  00  00  00  00  00  00  15  
  0.000000 1  37B         Rx d 8  00  00  C3  00  00  00  00  13  
  0.000000 1  396         Rx d 7  00  00  00  00  12  00  12  
  0.000000 1  3A1         Rx d 8  3F  C0  00  00  00  00  00  1B  
  0.000000 1  428         Rx d 7  00  00  00  00  00  00  19  
  0.000000 1  510         Rx d 8  00  00  00  00  00  00  00  11  
  0.000000 1  1A6         Rx d 8  04  00  00  00  3E  01  00  2F  
  0.000000 1  091         Rx d 8  80  19  C8  02  00  00  00  8E  
  0.000000 1  1A4         Rx d 8  00  66  00  F0  00  00  00  0E  
  0.000000 1  1AC         Rx d 8  7F  FF  00  00  00  00  00  0D  
  0.000000 1  1B0         Rx d 7  00  9F  00  00  00  00  04  
  0.000000 1  1D0         Rx d 8  00  00  00  00  00  00  00  0A  
  0.000000 1  1EA         Rx d 8  00  00  00  00  00  00  00  0F  
  0.000000 1  255         Rx d 8  FA  FA  FA  FA  55  55  00  6E  
  0.000000 1  3D9         Rx d 3  00  8D  0A  
  0.000000 1  1A6         Rx d 8  04  00  00  00  3E  01  00  3E  
  0.000000 1  221         Rx d 4  FE  00  00  24  
  0.000000 1  294         Rx d 8  00  16  00  00  F3  AE  00  26  
  0.000000 1  295         Rx d 4  00  00  00  26  
  0.000000 1  091         Rx d 8  80  19  C8  02  00  00  00  9D  
  0.000000 1  091         Rx d 8  80  19  C8  02  00  00  00  AC  
  0.000000 1  1A4         Rx d 8  00  66  00  F0  00  00  00  1D  
  0.000000 1  1AC         Rx d 8  7F  FF  00  00  00  00  00  1C  
  0.000000 1  1B0         Rx d 7  00  1F  00  00  00  00  1B  
  0.000000 1  1D0         Rx d 8  00  00  00  00  00  00  00  0A  
  0.000000 1  1EA         Rx d 8  00  00  00  00  00  00  00  1E  
  0.000000 1  071         Rx d 8  00  00  64  60  01  00  00  1E  
  0.000000 1  072         Rx d 8  00  00  00  00  00  4E  20  1A  
  0.000000 1  158         Rx d 8  00  00  00  00  00  00  00  19  
  0.000000 1  191         Rx d 8  01  00  80  A1  01  01  7F  10  
  0.000000 1  19D         Rx d 8  00  00  00  00  00  00  00  10  
  0.000000 1  1A6         Rx d 8  04  00  00  00  3F  01  00  00  
  0.000000 1  091         Rx d 8  80  19  C8  02  00  00  00  BB  
  0.000000 1  590         Rx d 5  00  00  00  04  06  
  0.000000 1  156         Rx d 6  00  75  00  00  07  09  
  0.000000 1  071         Rx d 8  00  00  64  60  03  00  00  2B  
  0.000000 1  072         Rx d 8  00  00  00  00  00  4E  20  29  
  0.000000 1  158         Rx d 8  00  00  00  00  00  00  00  28  
  0.000000 1  191         Rx d 8  01  00  80  A1  03  01  7F  2D  
  0.000000 1  19D         Rx d 8  00  00  00  00  11  00  00  2D  
  0.000000 1  130         Rx d 8  7F  FF  7F  FF  00  00  04  17  
  0.000000 1  10F         Rx d 8  00  00  00  00  00  00  00  53  
  0.000000 1  17C         Rx d 8  00  00  00  00  10  04  00  5A  
  0.000000 1  13C         Rx d 8  00  00  00  00  00  00  00  17  
  0.000000 1  116         Rx d 8  80  00  00  00  00  00  00  17  
  0.000000 1  1C7         Rx d 8  1D  C0  00  5A  A3  A3  00  10  
  0.000000 1  1DC         Rx d 7  40  00  00  00  00  00  19  
  0.000000 1  091         Rx d 8  80  19  C8  02  00  00  00  8E  
  0.000000 1  1A4         Rx d 8  00  66  00  F0  00  00  00  2C  
  0.000000 1  1AC         Rx d 8  7F  FF  00  00  00  00  00  2B  
  0.000000 1  156         Rx d 6  00  75  00  00  07  18  
  0.000000 1  1B0         Rx d 7  00  0F  00  00  00  00  2B  
  0.000000 1  1D0         Rx d 8  00  00  00  00  00  00  00  0A  
  0.000000 1  1EA         Rx d 8  00  00  00  00  00  00  00  2D  
  0.000000 1  255         Rx d 8  00  00  00  00  55  55  01  55  
  0.000000 1  320         Rx d 8  00  00  00  00  00  00  00  12  
  0.000000 1  324         Rx d 8  45  46  00  00  00  00  18  12  
  0.000000 1  328         Rx d 8  00  00  00  00  00  00  00  1A  
  0.000000 1  071         Rx d 8  00  00  64  60  05  00  00  38  
  0.000000 1  072         Rx d 8  00  00  00  00  00  4E  20  38  
  0.000000 1  158         Rx d 8  00  00  00  00  00  00  00  37  
  0.000000 1  191         Rx d 8  01  00  80  A1  05  01  7F  3A  
  0.000000 1  19D         Rx d 8  00  00  00  00  11  00  00  3C  
  0.000000 1  130         Rx d 8  7F  FF  7F  FF  00  00  04  26  
  0.000000 1  10F         Rx d 8  00  00  11  00  00  00  00  60  
  0.000000 1  17C         Rx d 8  00  00  00  00  10  04  00  69  
  0.000000 1  1A6         Rx d 8  04  00  00  00  3F  01  00  1F  
  0.000000 1  13C         Rx d 8  00  00  00  00  00  00  00  26  
  0.000000 1  294         Rx d 8  00  16  00  00  F3  AE  00  35  
  0.000000 1  116         Rx d 8  80  00  00  00  00  00  00  26  
  0.000000 1  295         Rx d 4  00  00  00  35  
  0.000000 1  1C7         Rx d 8  1D  C8  00  5A  A3  A3  00  27  
  0.000000 1  221         Rx d 4  FE  00  00  33  
  0.000000 1  091         Rx d 8  80  19  C8  02  00  00  00  9D  
  0.000000 1  156         Rx d 6  00  75  00  00  07  27  
  0.000000 1  071         Rx d 8  00  00  64  60  07  00  00  09  
  0.000000 1  072         Rx d 8  00  00  00  00  00  4E  20  0B  
  0.000000 1  158         Rx d 8  00  00  00  00  00  00  00  0A  
  0.000000 1  191         Rx d 8  01  00  80  A1  07  01  7F  0B  
  0.000000 1  19D         Rx d 8  00  00  00  00  11  00  00  0F  
  0.000000 1  130         Rx d 8  7F  FF  7F  FF  00  00  04  35  
  0.000000 1  10F         Rx d 8  00  45  1F  00  00  00  00  78  
  0.000000 1  17C         Rx d 8  00  00  00  00  10  00  00  7C  
  0.000000 1  13C         Rx d 8  FF  AB  FF  7D  00  00  00  30  
  0.000000 1  116         Rx d 8  80  00  55  00  00  FF  7D  39  
  0.000000 1  1C7         Rx d 8  1D  C0  00  5A  A3  A3  00  3E  
  0.000000 1  1DC         Rx d 7  40  00  00  00  00  00  28  
  0.000000 1  091         Rx d 8  80  19  C8  02  00  00  00  AC  
  0.000000 1  1A4         Rx d 8  00  66  00  F0  00  00  00  3B  
  0.000000 1  1AC         Rx d 8  7F  FF  00  00  00  00  00  3A  
  0.000000 1  156         Rx d 6  00  75  00  00  07  36  
  0.000000 1  1B0         Rx d 7  00  0F  00  00  00  00  3A  
  0.000000 1  1D0         Rx d 8  00  00  00  00  00  00  00  0A  
  0.000000 1  1EA         Rx d 8  00  00  00  00  00  00  00  3C  
  0.000000 1  071         Rx d 8  00  00  64  60  09  00  00  16  
  0.000000 1  072         Rx d 8  00  00  00  00  00  4E  20  1A  
  0.000000 1  158         Rx d 8  00  00  00  00  00  00  00  19  
  0.000000 1  191         Rx d 8  01  00  80  A1  09  01  7F  18  
  0.000000 1  19D         Rx d 8  00  00  00  00  11  00  00  1E  
  0.000000 1  130         Rx d 8  7F  FF  7F  FF  00  00  04  08  
  0.000000 1  10F         Rx d 8  00  45  1F  00  00  00  00  4B  
  0.000000 1  17C         Rx d 8  00  00  00  00  10  00  00  4F  
  0.000000 1  13C         Rx d 8  FF  AB  FF  7D  00  00  00  03  
  0.000000 1  1A6         Rx d 8  04  00  80  00  3F  01  00  26  
  0.000000 1  116         Rx d 8  80  00  55  00  00  FF  7D  0C  
  0.000000 1  372         Rx d 2  00  2A  
  0.000000 1  1C7         Rx d 8  1D  C0  00  5A  A3  A3  00  01  
  0.000000 1  374         Rx d 7  00  00  00  00  00  00  28  
  0.000000 1  309         Rx d 8  00  00  00  00  00  00  00  66  
  0.000000 1  378         Rx d 8  00  00  00  00  00  00  00  24  
  0.000000 1  37B         Rx d 8  00  00  C0  28  00  00  00  2B  
  0.000000 1  396         Rx d 7  00  00  FE  00  00  00  27  
  0.000000 1  091         Rx d 8  80  19  C8  02  00  00  00  BB  
  0.000000 1  156         Rx d 6  00  75  00  00  07  09  
  0.000000 1  071         Rx d 8  00  00  64  60  0B  00  00  23  
  0.000000 1  072         Rx d 8  00  00  00  00  00  4E  20  29  
  0.000000 1  158         Rx d 8  00  00  00  00  00  00  00  28  
  0.000000 1  191         Rx d 8  01  00  80  A1  0B  01  7F  25  
  0.000000 1  19D         Rx d 8  F7  DF  7D  00  11  00  00  27  
  0.000000 1  130         Rx d 8  7F  FF  7F  FF  00  00  04  17  
  0.000000 1  10F         Rx d 8  00  45  1F  00  00  00  00  5A  
  0.000000 1  17C         Rx d 8  00  00  00  00  10  00  00  5E  
  0.000000 1  13C         Rx d 8  FF  AB  00  04  00  00  00  10  
  0.000000 1  116         Rx d 8  80  00  55  00  00  00  04  19  
  0.000000 1  1C7         Rx d 8  1D  C0  00  5A  A3  A3  00  10  
  0.000000 1  1DC         Rx d 7  40  00  00  00  00  00  37  
  0.000000 1  091         Rx d 8  80  19  C8  02  00  00  00  8E  
  0.000000 1  1A4         Rx d 8  00  66  00  F0  00  00  00  0E  
  0.000000 1  1AC         Rx d 8  7F  FF  00  00  00  00  00  0D  
  0.000000 1  156         Rx d 6  00  75  00  00  07  18  
  0.000000 1  1B0         Rx d 7  00  0F  00  00  00  00  0D  
  0.000000 1  1D0         Rx d 8  00  00  00  00  00  00  00  0A  
  0.000000 1  1EA         Rx d 8  00  00  00  00  00  00  00  0F  
  0.000000 1  255         Rx d 8  00  00  00  00  55  55  02  54  
  0.000000 1  071         Rx d 8  00  00  64  60  0D  00  00  30  
  0.000000 1  072         Rx d 8  00  00  00  00  00  4E  20  38  
  0.000000 1  158         Rx d 8  00  00  00  00  00  00  00  37  
  0.000000 1  191         Rx d 8  01  00  80  A1  0D  01  7F  32  
  0.000000 1  19D         Rx d 8  F7  DF  7D  00  11  00  00  36  
  0.000000 1  130         Rx d 8  7F  FF  7F  FF  00  00  04  26  
  0.000000 1  10F         Rx d 8  00  45  1F  00  00  00  00  69  
  0.000000 1  17C         Rx d 8  00  00  00  00  10  00  00  6D  
  0.000000 1  13C         Rx d 8  FF  AB  00  04  00  00  00  2F  
  0.000000 1  1A6         Rx d 8  04  00  80  00  3F  01  00  35  
  0.000000 1  116         Rx d 8  80  00  55  00  00  00  04  28  
  0.000000 1  294         Rx d 8  00  16  00  00  F3  AE  00  08  
  0.000000 1  1C7         Rx d 8  1D  C0  00  5A  A3  A3  00  2F  
  0.000000 1  295         Rx d 4  00  00  00  08  
  0.000000 1  221         Rx d 4  FE  00  00  06  
  0.000000 1  091         Rx d 8  80  19  C8  02  00  00  00  9D  
  0.000000 1  156         Rx d 6  00  75  00  00  07  27  
  0.000000 1  071         Rx d 8  00  00  64  60  0F  00  00  01  
  0.000000 1  072         Rx d 8  00  00  00  00  00  4E  20  0B  
  0.000000 1  158         Rx d 8  00  00  00  00  00  00  00  0A  
  0.000000 1  191         Rx d 8  01  00  80  A1  0F  01  7F  03  
  0.000000 1  19D         Rx d 8  00  40  04  00  11  00  00  07  
  0.000000 1  130         Rx d 8  7F  FF  7F  FF  00  00  04  35  
  0.000000 1  10F         Rx d 8  00  45  1F  00  00  00  00  78  
  0.000000 1  17C         Rx d 8  00  00  00  00  10  00  00  7C  
  0.000000 1  13C         Rx d 8  FF  AB  00  04  00  00  00  3E  
  0.000000 1  116         Rx d 8  80  00  55  00  00  00  04  37  
  0.000000 1  1C7         Rx d 8  1D  C0  00  5A  A3  A3  00  3E  
  0.000000 1  1DC         Rx d 7  40  00  00  00  00  00  0A  
  0.000000 1  091         Rx d 8  80  19  C8  02  00  00  00  AC  
  0.000000 1  1A4         Rx d 8  00  66  00  F0  00  00  00  1D  
  0.000000 1  1AC         Rx d 8  7F  FF  00  00  00  00  00  1C  
  0.000000 1  156         Rx d 6  00  75  00  00  07  36  
  0.000000 1  1B0         Rx d 7  00  0F  00  00  00  00  1C  
  0.000000 1  1D0         Rx d 8  00  00  00  00  00  00  00  0A  
  0.000000 1  1EA         Rx d 8  00  00  00  00  00  00  00  1E  
  0.000000 1  071         Rx d 8  00  00  64  60  11  00  00  1D  
  0.000000 1  072         Rx d 8  00  00  00  00  00  4E  20  1A  
  0.000000 1  158         Rx d 8  00  00  00  00  00  00  00  19  
  0.000000 1  191         Rx d 8  01  00  80  A1  11  01  7F  1F  
  0.000000 1  19D         Rx d 8  00  40  04  00  11  00  00  16  
  0.000000 1  130         Rx d 8  7F  FF  7F  FF  00  00  04  08  
  0.000000 1  10F         Rx d 8  00  45  21  00  00  00  00  48  
  0.000000 1  17C         Rx d 8  00  00  00  00  10  00  00  4F  
  0.000000 1  13C         Rx d 8  FF  AB  00  04  00  00  00  01  
  0.000000 1  1A6         Rx d 8  04  00  80  00  3E  01  00  09  
  0.000000 1  116         Rx d 8  80  00  55  00  00  00  04  0A  
  0.000000 1  1AB         Rx d 3  00  00  11  
  0.000000 1  1C7         Rx d 8  1D  C0  00  5A  A3  A3  00  01  
  0.000000 1  551         Rx d 5  00  00  00  04  18  
  0.000000 1  091         Rx d 8  80  19  C8  02  00  00  00  BB  
  0.000000 1  156         Rx d 6  00  75  00  00  07  09  
  0.000000 1  071         Rx d 8  00  00  64  60  13  00  00  2A  
  0.000000 1  072         Rx d 8  00  00  00  00  00  4E  20  29  
  0.000000 1  158         Rx d 8  00  00  00  00  00  00  00  28  
  0.000000 1  191         Rx d 8  01  00  80  A1  13  01  7F  2C  
  0.000000 1  19D         Rx d 8  00  40  04  00  11  00  00  25  
  0.000000 1  130         Rx d 8  7F  FF  7F  FF  00  00  04  17  
  0.000000 1  10F         Rx d 8  00  61  24  00  00  00  00  56  
  0.000000 1  17C         Rx d 8  00  00  00  00  10  00  00  5E  
  0.000000 1  13C         Rx d 8  FF  AB  00  04  00  00  00  10  
  0.000000 1  116         Rx d 8  80  00  55  00  00  00  04  19  
  0.000000 1  1C7         Rx d 8  1D  C0  00  5A  A3  A3  00  10  
  0.000000 1  1DC         Rx d 7  40  00  00  00  00  00  19  
  0.000000 1  091         Rx d 8  80  19  C8  02  00  00  00  8E  
  0.000000 1  1A4         Rx d 8  00  66  00  F0  00  00  00  2C  
  0.000000 1  1AC         Rx d 8  7F  FF  00  00  00  00  00  2B  
  0.000000 1  156         Rx d 6  00  75  00  00  07  18  
  0.000000 1  1B0         Rx d 7  00  0F  00  00  00  00  2B  
  0.000000 1  1D0         Rx d 8  00  00  00  00  00  00  00  0A  
  0.000000 1  1EA         Rx d 8  00  00  00  00  00  00  00  2D  
  0.000000 1  255         Rx d 8  00  00  00  00  55  55  03  53  
  0.000000 1  071         Rx d 8  00  00  64  60  15  00  00  37  
  0.000000 1  072         Rx d 8  00  00  00  00  00  4E  20  38  
  0.000000 1  158         Rx d 8  00  00  00  00  00  00  00  37  
  0.000000 1  191         Rx d 8  01  00  80  A1  15  01  7F  39  
  0.000000 1  19D         Rx d 8  00  40  04  00  11  00  00  34  
  0.000000 1  130         Rx d 8  7F  FF  7F  FF  00  00  04  26  
  0.000000 1  10F         Rx d 8  00  61  24  00  00  00  00  65  
  0.000000 1  17C         Rx d 8  00  00  00  00  10  00  00  6D  
  0.000000 1  13C         Rx d 8  FF  AB  00  06  00  00  00  2D  
  0.000000 1  116         Rx d 8  80  00  55  00  00  00  06  26  
  0.000000 1  1A6         Rx d 8  04  00  80  00  3F  01  00  17  
  0.000000 1  1AB         Rx d 3  80  00  64  
  0.000000 1  1C7         Rx d 8  1D  C0  00  5A  A3  A3  00  2F  
  0.000000 1  294         Rx d 8  00  16  00  00  F3  AE  00  17  
  0.000000 1  221         Rx d 4  FE  00  00  15  
  0.000000 1  295         Rx d 4  00  00  00  17  
  0.000000 1  091         Rx d 8  80  19  C8  02  00  00  00  9D  
  0.000000 1  156         Rx d 6  00  75  00  00  07  27  
  0.000000 1  071         Rx d 8  00  00  64  60  17  00  00  08  
  0.000000 1  072         Rx d 8  00  00  00  00  00  4E  20  0B  
  0.000000 1  158         Rx d 8  00  00  00  00  00  00  00  0A  
  0.000000 1  191         Rx d 8  01  00  80  A1  17  01  7F  0A  
  0.000000 1  19D         Rx d 8  00  40  04  00  11  00  00  07  
  0.000000 1  130         Rx d 8  7F  FF  7F  FF  00  00  04  35  
  0.000000 1  10F         Rx d 8  00  61  23  00  00  00  00  75  
  0.000000 1  17C         Rx d 8  00  00  00  00  10  00  00  7C  
  0.000000 1  13C         Rx d 8  FF  AB  00  06  00  00  00  3C  
  0.000000 1  116         Rx d 8  80  00  55  00  00  00  06  35  
  0.000000 1  1C7         Rx d 8  1D  C0  00  5A  A3  A3  00  3E  
  0.000000 1  1DC         Rx d 7  40  00  00  00  00  00  28  
  0.000000 1  091         Rx d 8  80  19  C8  02  00  00  00  AC  
  0.000000 1  1A4         Rx d 8  00  66  00  F0  00  00  00  3B  
  0.000000 1  1AC         Rx d 8  7F  FF  00  00  00  00  00  3A  
  0.000000 1  156         Rx d 6  00  75  00  00  07  36  
  0.000000 1  1B0         Rx d 7  00  0F  00  00  00  00  3A  
  0.000000 1  1D0         Rx d 8  00  00  00  00  00  00  00  0A  
  0.000000 1  1EA         Rx d 8  00  00  00  00  00  00  00  3C  
  0.000000 1  320         Rx d 8  00  00  00  00  00  00  00  21  
  0.000000 1  3D7         Rx d 8  10  00  00  00  00  00  00  1F  
  0.000000 1  324         Rx d 8  45  46  00  00  00  00  1A  2F  
  0.000000 1  328         Rx d 8  00  00  00  00  00  40  00  25  
  0.000000 1  071         Rx d 8  00  00  64  60  18  00  00  16  
  0.000000 1  072         Rx d 8  00  00  00  00  00  4E  20  1A  
  0.000000 1  158         Rx d 8  00  00  00  00  00  00  00  19  
  0.000000 1  191         Rx d 8  01  00  80  A1  18  01  7F  18  
  0.000000 1  19D         Rx d 8  00  60  06  00  11  00  00  12  
  0.000000 1  130         Rx d 8  7F  FF  7F  FF  00  00  04  08  
  0.000000 1  10F         Rx d 8  00  61  21  00  00  00  00  4A  
  0.000000 1  17C         Rx d 8  00  00  00  00  10  00  00  4F  
  0.000000 1  13C         Rx d 8  FF  AB  00  06  00  00  00  0F  
  0.000000 1  116         Rx d 8  80  00  55  00  00  00  06  08  
  0.000000 1  1A6         Rx d 8  04  00  80  00  3F  01  00  26  
  0.000000 1  1AB         Rx d 3  80  00  73  
  0.000000 1  1C7         Rx d 8  1D  C0  00  5A  A3  A3  00  01  
  0.000000 1  091         Rx d 8  80  19  C8  02  00  00  00  BB  
  0.000000 1  156         Rx d 6  00  75  00  00  07  09  
  0.000000 1  071         Rx d 8  00  00  64  60  1A  00  00  23  
  0.000000 1  072         Rx d 8  00  00  00  00  00  4E  20  29  
  0.000000 1  158         Rx d 8  00  00  00  00  00  00  00  28  
  0.000000 1  191         Rx d 8  01  00  80  A1  1A  01  7F  25  
  0.000000 1  19D         Rx d 8  00  60  06  00  11  00  00  21  
  0.000000 1  130         Rx d 8  00  00  00  00  00  00  00  13  
  0.000000 1  10F         Rx d 8  00  61  1F  00  00  00  00  5C  
  0.000000 1  17C         Rx d 8  00  00  00  00  10  00  00  5E  
  0.000000 1  13C         Rx d 8  FF  AB  00  06  00  00  00  1E  
  0.000000 1  116         Rx d 8  80  00  55  00  00  00  06  17  
  0.000000 1  1C7         Rx d 8  1D  C8  00  5A  A3  A3  00  18  
  0.000000 1  1DC         Rx d 7  40  00  00  00  00  00  37  
  0.000000 1  091         Rx d 8  80  19  C8  02  00  00  00  8E  
  0.000000 1  1A4         Rx d 8  00  66  00  F0  00  00  00  0E  
  0.000000 1  1AC         Rx d 8  7F  FF  00  00  00  00  00  0D  
  0.000000 1  156         Rx d 6  00  75  00  00  07  18  
  0.000000 1  1B0         Rx d 7  00  0F  00  00  00  00  0D  
  0.000000 1  1D0         Rx d 8  00  00  00  00  00  00  00  0A  
  0.000000 1  1EA         Rx d 8  00  00  00  00  00  00  00  0F  
  0.000000 1  255         Rx d 8  00  00  00  00  55  55  04  52  
  0.000000 1  071         Rx d 8  00  00  64  60  1C  00  00  30  
  0.000000 1  072         Rx d 8  00  00  00  00  00  4E  20  38  
  0.000000 1  158         Rx d 8  00  00  00  00  00  00  00  37  
  0.000000 1  191         Rx d 8  01  00  80  A1  1C  01  7F  32  
  0.000000 1  19D         Rx d 8  00  60  06  00  11  00  00  30  
  0.000000 1  130         Rx d 8  00  00  00  00  00  00  00  22  
  0.000000 1  10F         Rx d 8  00  61  1F  00  00  00  00  6B  
  0.000000 1  17C         Rx d 8  00  00  00  00  10  00  00  6D  
  0.000000 1  13C         Rx d 8  FF  AB  00  06  00  00  00  2D  
  0.000000 1  116         Rx d 8  80  00  55  00  00  00  06  26  
  0.000000 1  1AB         Rx d 3  80  00  46  
  0.000000 1  1A6         Rx d 8  04  00  80  00  3E  01  00  36  
  0.000000 1  1C7         Rx d 8  1D  C0  00  5A  A3  A3  00  2F  
  0.000000 1  294         Rx d 8  00  16  00  00  F3  AE  00  26  
  0.000000 1  221         Rx d 4  FE  00  00  24  
  0.000000 1  295         Rx d 4  00  00  00  26  
  0.000000 1  309         Rx d 8  00  00  00  00  00  00  00  75  
  0.000000 1  372         Rx d 2  00  39  
  0.000000 1  374         Rx d 7  00  00  00  00  00  00  37  
  0.000000 1  378         Rx d 8  00  00  00  00  00  00  00  33  
  0.000000 1  37B         Rx d 8  00  00  C0  28  00  00  00  3A  
  0.000000 1  396         Rx d 7  00  00  FE  00  00  00  36  
  0.000000 1  3A1         Rx d 8  00  00  00  00  00  00  00  28  
  0.000000 1  091         Rx d 8  80  19  C8  02  00  00  00  9D  
  0.000000 1  156         Rx d 6  00  75  00  00  07  27  
  0.000000 1  071         Rx d 8  00  00  64  60  1E  00  00  01  
  0.000000 1  072         Rx d 8  00  00  00  00  00  4E  20  0B  
  0.000000 1  158         Rx d 8  00  00  00  00  00  00  00  0A  
  0.000000 1  191         Rx d 8  01  00  80  A1  1E  01  7F  03  
  0.000000 1  19D         Rx d 8  00  60  06  00  11  00  00  03  
  0.000000 1  130         Rx d 8  00  00  00  00  00  00  00  31  
  0.000000 1  10F         Rx d 8  00  61  1F  00  00  00  00  7A  
  0.000000 1  17C         Rx d 8  00  00  00  00  10  00  00  7C  
  0.000000 1  13C         Rx d 8  FF  AB  00  06  00  00  00  3C  
  0.000000 1  116         Rx d 8  80  00  55  00  00  00  06  35  
  0.000000 1  1C7         Rx d 8  1D  C0  00  5A  A3  A3  00  3E  
  0.000000 1  1DC         Rx d 7  40  00  00  00  00  00  0A  
  0.000000 1  091         Rx d 8  80  19  C8  02  00  00  00  AC  
  0.000000 1  1A4         Rx d 8  00  66  00  F0  00  00  00  1D  
  0.000000 1  1AC         Rx d 8  7F  FF  00  00  00  00  00  1C  
  0.000000 1  156         Rx d 6  00  75  00  00  07  36  
  0.000000 1  1B0         Rx d 7  00  0F  00  00  00  00  1C  
  0.000000 1  1D0         Rx d 8  00  00  00  00  00  00  00  0A  
  0.000000 1  1EA         Rx d 8  00  00  00  00  00  00  00  1E  
  0.000000 1  071         Rx d 8  00  00  64  60  20  00  00  1D  
  0.000000 1  072         Rx d 8  00  00  00  00  00  4E  20  1A  
  0.000000 1  158         Rx d 8  00  00  00  00  00  00  00  19  
  0.000000 1  191         Rx d 8  01  00  80  A1  20  01  7F  1F  
  0.000000 1  19D         Rx d 8  00  60  06  00  11  00  00  12  
  0.000000 1  130         Rx d 8  00  00  00  00  00  00  00  04  
  0.000000 1  10F         Rx d 8  00  61  1F  00  00  00  00  4D  
  0.000000 1  17C         Rx d 8  00  00  00  00  10  00  00  4F  
  0.000000 1  13C         Rx d 8  FF  AB  00  06  00  00  00  0F  
  0.000000 1  116         Rx d 8  80  00  55  00  00  00  06  08  
  0.000000 1  1AB         Rx d 3  80  00  55  
  0.000000 1  1A6         Rx d 8  04  00  80  5D  3E  01  00  07  
  0.000000 1  1C7         Rx d 8  1D  C0  00  5A  A3  A3  00  01  
  0.000000 1  091         Rx d 8  80  19  C8  02  00  00  00  BB  
  0.000000 1  156         Rx d 6  00  75  00  00  07  09  
  0.000000 1  071         Rx d 8  00  00  64  60  22  00  00  2A  
  0.000000 1  072         Rx d 8  00  00  00  00  00  4E  20  29  
  0.000000 1  158         Rx d 8  00  00  00  00  00  00  00  28  
  0.000000 1  191         Rx d 8  01  00  80  A1  22  01  7F  2C  
  0.000000 1  19D         Rx d 8  00  60  06  00  11  00  00  21  
  0.000000 1  130         Rx d 8  00  00  00  00  00  00  00  13  
  0.000000 1  10F         Rx d 8  00  61  1D  00  00  00  00  5E  
  0.000000 1  17C         Rx d 8  00  00  00  00  10  00  00  5E  
  0.000000 1  13C         Rx d 8  FF  AB  00  06  00  00  00  1E  
  0.000000 1  116         Rx d 8  80  00  55  00  00  00  06  17  
  0.000000 1  1C7         Rx d 8  1D  C0  00  5A  A3  A3  00  10  
  0.000000 1  1DC         Rx d 7  40  00  00  00  00  00  19  
  0.000000 1  091         Rx d 8  80  19  C8  02  00  00  00  8E  
  0.000000 1  1A4         Rx d 8  00  66  00  F0  00  00  00  2C  
  0.000000 1  1AC         Rx d 8  7F  FF  00  00  00  00  00  2B  
  0.000000 1  156         Rx d 6  00  75  00  00  07  18  
  0.000000 1  1B0         Rx d 7  00  0F  00  00  00  00  2B  
  0.000000 1  1D0         Rx d 8  00  00  00  00  00  00  00  0A  
  0.000000 1  1EA         Rx d 8  00  00  00  00  00  00  00  2D  
  0.000000 1  255         Rx d 8  00  00  00  00  55  55  05  51  
  0.000000 1  3D9         Rx d 3  00  8D  19  
  0.000000 1  071         Rx d 8  00  00  64  60  24  00  00  37  
  0.000000 1  072         Rx d 8  00  00  00  00  00  4E  20  38  
  0.000000 1  158         Rx d 8  00  00  00  00  00  00  00  37  
  0.000000 1  191         Rx d 8  01  00  80  A1  24  01  7F  39  
  0.000000 1  19D         Rx d 8  00  60  06  00  11  00  00  30  
  0.000000 1  130         Rx d 8  00  00  00  00  00  00  00  22  
  0.000000 1  10F         Rx d 8  00  61  1A  00  00  00  00  60  
  0.000000 1  17C         Rx d 8  00  00  00  00  10  00  00  6D  
  0.000000 1  13C         Rx d 8  FF  AB  00  06  00  00  00  2D  
  0.000000 1  116         Rx d 8  80  00  55  00  00  00  06  26  
  0.000000 1  1AB         Rx d 3  80  00  64  
  0.000000 1  1C7         Rx d 8  1D  C8  00  5A  A3  A3  00  27  
  0.000000 1  1A6         Rx d 8  04  00  80  5D  3F  01  00  15  
  0.000000 1  221         Rx d 4  FE  00  00  33  
  0.000000 1  294         Rx d 8  00  16  00  00  F3  AE  00  35  
  0.000000 1  295         Rx d 4  00  00  00  35  
  0.000000 1  091         Rx d 8  80  19  C8  02  00  00  00  9D  
  0.000000 1  156         Rx d 6  00  75  00  00  07  27  
  0.000000 1  071         Rx d 8  00  00  64  60  26  00  00  08  
  0.000000 1  072         Rx d 8  00  00  00  00  00  4E  20  0B  
  0.000000 1  158         Rx d 8  00  00  00  00  00  00  00  0A  
  0.000000 1  191         Rx d 8  01  00  80  A1  26  01  7F  0A  
  0.000000 1  19D         Rx d 8  00  60  06  00  11  00  00  03  
  0.000000 1  130         Rx d 8  00  00  00  00  00  00  00  31  
  0.000000 1  10F         Rx d 8  00  61  1A  00  00  00  00  7F  
  0.000000 1  17C         Rx d 8  00  00  00  00  10  00  00  7C  
  0.000000 1  13C         Rx d 8  FF  AB  00  06  00  00  00  3C  
  0.000000 1  116         Rx d 8  80  00  55  00  00  00  06  35  
  0.000000 1  1C7         Rx d 8  1D  C0  10  5A  A3  A3  00  3D  
  0.000000 1  1DC         Rx d 7  40  00  00  00  00  00  28  
  0.000000 1  091         Rx d 8  80  19  C8  02  00  00  00  AC  
  0.000000 1  1A4         Rx d 8  00  66  00  F0  00  00  00  3B  
  0.000000 1  1AC         Rx d 8  7F  FF  00  00  00  00  00  3A  
  0.000000 1  156         Rx d 6  00  75  00  00  07  36  
  0.000000 1  1B0         Rx d 7  00  0F  00  00  00  00  3A  
  0.000000 1  1D0         Rx d 8  00  00  00  00  00  00  00  0A  
  0.000000 1  1EA         Rx d 8  00  00  00  00  00  00  00  3C  
  0.000000 1  071         Rx d 8  00  00  64  60  28  00  00  15  
  0.000000 1  072         Rx d 8  00  00  00  00  00  4E  20  1A  
  0.000000 1  158         Rx d 8  00  00  00  00  00  00  00  19  
  0.000000 1  191         Rx d 8  01  00  80  A1  28  01  7F  17  
  0.000000 1  19D         Rx d 8  00  60  06  00  11  00  00  12  
  0.000000 1  130         Rx d 8  00  00  00  00  00  00  00  04  
  0.000000 1  10F         Rx d 8  00  61  19  00  00  00  00  43  
  0.000000 1  17C         Rx d 8  00  00  00  00  10  00  00  4F  
  0.000000 1  13C         Rx d 8  FF  AB  00  06  00  00  00  0F  
  0.000000 1  116         Rx d 8  80  00  55  00  00  00  06  08  
  0.000000 1  1AB         Rx d 3  80  00  73  
  0.000000 1  1C7         Rx d 8  1D  C0  10  5A  A3  A3  00  00  
  0.000000 1  1A6         Rx d 8  04  00  80  5D  3F  01  00  24  
  0.000000 1  091         Rx d 8  80  19  C8  02  00  00  00  BB  
  0.000000 1  156         Rx d 6  00  75  00  00  07  09  
  0.000000 1  071         Rx d 8  00  00  64  60  2A  00  00  22  
  0.000000 1  072         Rx d 8  00  00  00  00  00  4E  20  29  
  0.000000 1  158         Rx d 8  00  00  00  00  00  00  00  28  
  0.000000 1  191         Rx d 8  01  00  80  A1  2A  01  7F  24  
  0.000000 1  19D         Rx d 8  00  60  06  00  11  00  00  21  
  0.000000 1  130         Rx d 8  00  00  00  00  00  00  00  13  
  0.000000 1  10F         Rx d 8  00  61  17  00  00  00  00  54  
  0.000000 1  17C         Rx d 8  00  00  00  00  10  00  00  5E  
  0.000000 1  13C         Rx d 8  FF  AB  00  06  00  00  00  1E  
  0.000000 1  116         Rx d 8  80  00  55  00  00  00  06  17  
  0.000000 1  1C7         Rx d 8  1D  C0  10  5A  A3  A3  00  1F  
  0.000000 1  1DC         Rx d 7  40  00  00  00  00  00  37  
  0.000000 1  091         Rx d 8  80  19  C8  02  00  00  00  8E  
  0.000000 1  1A4         Rx d 8  00  66  00  F0  00  00  00  0E  
  0.000000 1  1AC         Rx d 8  7F  FF  00  00  00  00  00  0D  
  0.000000 1  156         Rx d 6  00  75  00  00  07  18  
  0.000000 1  1B0         Rx d 7  00  0F  00  00  00  00  0D  
  0.000000 1  1D0         Rx d 8  00  00  00  00  00  00  00  0A  
  0.000000 1  1EA         Rx d 8  00  00  00  00  00  00  00  0F  
  0.000000 1  255         Rx d 8  00  00  00  00  55  55  06  50  
  0.000000 1  320         Rx d 8  00  00  00  00  00  00  00  30  
  0.000000 1  324         Rx d 8  45  46  00  00  00  00  0A  3F  
  0.000000 1  328         Rx d 8  00  00  00  00  00  40  00  34  
  0.000000 1  071         Rx d 8  00  00  64  60  2C  00  00  3F  
  0.000000 1  072         Rx d 8  00  00  00  00  00  4E  20  38  
  0.000000 1  158         Rx d 8  00  00  00  00  00  00  00  37  
  0.000000 1  191         Rx d 8  01  00  80  A1  2C  01  7F  31  
  0.000000 1  19D         Rx d 8  00  60  06  00  11  00  00  30  
  0.000000 1  130         Rx d 8  00  00  00  00  00  00  00  22  
  0.000000 1  10F         Rx d 8  00  61  15  00  00  00  00  65  
  0.000000 1  17C         Rx d 8  00  00  00  00  10  00  00  6D  
  0.000000 1  13C         Rx d 8  FF  AB  00  06  00  00  00  2D  
  0.000000 1  116         Rx d 8  80  00  55  00  00  00  06  26  
  0.000000 1  1AB         Rx d 3  80  00  46  
  0.000000 1  1C7         Rx d 8  1D  C0  10  5A  A3  A3  00  2E  
  0.000000 1  1A6         Rx d 8  04  00  80  5D  3E  01  00  34  
  0.000000 1  221         Rx d 4  FE  00  00  06  
  0.000000 1  294         Rx d 8  00  16  00  00  F3  AE  00  08  
  0.000000 1  295         Rx d 4  00  00  00  08  
  0.000000 1  091         Rx d 8  80  19  C8  02  00  00  00  9D  
  0.000000 1  156         Rx d 6  00  75  00  00  07  27  
  0.000000 1  071         Rx d 8  00  00  64  60  2E  00  00  00  
  0.000000 1  072         Rx d 8  00  00  00  00  00  4E  20  0B  
  0.000000 1  158         Rx d 8  00  00  00  00  00  00  00  0A  
  0.000000 1  191         Rx d 8  01  00  80  A1  2E  01  7F  02  
  0.000000 1  19D         Rx d 8  00  60  06  00  11  00  00  03  
  0.000000 1  130         Rx d 8  00  00  00  00  00  00  00  31  
  0.000000 1  10F         Rx d 8  00  61  13  00  00  00  00  76  
  0.000000 1  17C         Rx d 8  00  00  00  00  10  00  00  7C  
  0.000000 1  13C         Rx d 8  FF  AB  00  06  00  00  00  3C  
  0.000000 1  116         Rx d 8  80  00  55  00  00  00  06  35  
  0.000000 1  1C7         Rx d 8  1D  C0  10  5A  A3  A3  00  3D  
  0.000000 1  1DC         Rx d 7  40  00  00  00  00  00  0A  
  0.000000 1  091         Rx d 8  80  19  C8  02  00  00  00  AC  
  0.000000 1  1A4         Rx d 8  00  66  00  F0  00  00  00  1D  
  0.000000 1  1AC         Rx d 8  7F  FF  00  00  00  00  00  1C  
  0.000000 1  156         Rx d 6  00  75  00  00  07  36  
  0.000000 1  1B0         Rx d 7  00  0F  00  00  00  00  1C  
  0.000000 1  1D0         Rx d 8  00  00  00  00  00  00  00  0A  
  0.000000 1  1EA         Rx d 8  00  00  00  00  00  00  00  1E  
  0.000000 1  039         Rx d 3  00  80  04  
  0.000000 1  555         Rx d 5  00  00  00  00  09  
  0.000000 1  071         Rx d 8  00  00  64  60  2F  00  00  1E  
  0.000000 1  072         Rx d 8  00  00  00  00  00  4E  20  1A  
  0.000000 1  158         Rx d 8  00  00  00  00  00  00  00  19  
  0.000000 1  191         Rx d 8  01  00  80  A1  2F  01  7F  10  
  0.000000 1  19D         Rx d 8  00  60  06  00  11  00  00  12  
  0.000000 1  130         Rx d 8  00  00  00  00  00  00  00  04  
  0.000000 1  10F         Rx d 8  00  61  12  00  00  00  00  4A  
  0.000000 1  17C         Rx d 8  00  00  00  00  10  00  00  4F  
  0.000000 1  13C         Rx d 8  FF  AB  00  06  00  00  00  0F  
  0.000000 1  116         Rx d 8  80  00  55  00  00  00  06  08  
  0.000000 1  1AB         Rx d 3  80  00  55  
  0.000000 1  1C7         Rx d 8  1D  C0  10  5A  A3  A3  00  00  
  0.000000 1  1A6         Rx d 8  04  00  80  5D  3E  01  00  07  
  0.000000 1  309         Rx d 8  00  00  00  00  00  00  00  48  
  0.000000 1  372         Rx d 2  00  0C  
  0.000000 1  374         Rx d 7  00  00  00  00  00  00  0A  
  0.000000 1  378         Rx d 8  00  00  00  00  00  00  00  06  
  0.000000 1  37B         Rx d 8  00  00  C0  28  00  00  00  0D  
  0.000000 1  396         Rx d 7  00  00  FE  00  00  00  09  
  0.000000 1  428         Rx d 7  00  00  00  00  00  00  28  
  0.000000 1  091         Rx d 8  80  19  C8  02  00  00  00  BB  
  0.000000 1  156         Rx d 6  00  75  00  00  07  09  
  0.000000 1  071         Rx d 8  00  00  64  60  31  00  00  2A  
  0.000000 1  072         Rx d 8  00  00  00  00  00  4E  20  29  
  0.000000 1  158         Rx d 8  00  00  00  00  00  00  00  28  
  0.000000 1  191         Rx d 8  01  00  80  A1  31  01  7F  2C  
  0.000000 1  19D         Rx d 8  00  60  06  00  11  00  00  21  
  0.000000 1  130         Rx d 8  00  00  00  00  00  00  00  13  
  0.000000 1  10F         Rx d 8  00  61  12  00  00  00  00  59  
  0.000000 1  17C         Rx d 8  00  00  00  00  10  00  00  5E  
  0.000000 1  13C         Rx d 8  FF  AB  00  06  00  00  00  1E  
  0.000000 1  116         Rx d 8  80  00  55  00  00  00  06  17  
  0.000000 1  1C7         Rx d 8  1D  C0  10  5A  A3  A3  00  1F  
  0.000000 1  1DC         Rx d 7  40  00  00  00  00  00  19  
  0.000000 1  091         Rx d 8  80  19  C8  02  00  00  00  8E  
  0.000000 1  1A4         Rx d 8  00  66  00  F0  00  00  00  2C  
  0.000000 1  1AC         Rx d 8  7F  FF  00  00  00  00  00  2B  
  0.000000 1  156         Rx d 6  00  75  00  00  07  18  
  0.000000 1  1B0         Rx d 7  00  0F  00  00  00  00  2B  
  0.000000 1  1D0         Rx d 8  00  00  00  00  00  00  00  0A  
  0.000000 1  1EA         Rx d 8  00  00  00  00  00  00  00  2D  
  0.000000 1  255         Rx d 8  00  00  00  00  55  55  07  4F  
  0.000000 1  071         Rx d 8  00  00  64  60  33  00  00  37  
  0.000000 1  072         Rx d 8  00  00  00  00  00  4E  20  38  
  0.000000 1  158         Rx d 8  00  00  00  00  00  00  00  37  
  0.000000 1  191         Rx d 8  01  00  80  A1  33  01  7F  39  
  0.000000 1  19D         Rx d 8  00  60  06  00  11  00  00  30  
  0.000000 1  130         Rx d 8  00  00  00  00  00  00  00  22  
  0.000000 1  10F         Rx d 8  00  61  11  00  00  00  00  69  
  0.000000 1  17C         Rx d 8  00  00  00  00  10  00  00  6D  
  0.000000 1  13C         Rx d 8  FF  AB  00  06  00  00  00  2D  
  0.000000 1  116         Rx d 8  80  00  55  00  00  00  06  26  
  0.000000 1  1AB         Rx d 3  80  00  64  
  0.000000 1  1C7         Rx d 8  1D  C8  10  5A  A3  A3  00  26  
  0.000000 1  1A6         Rx d 8  04  00  C0  5D  3E  01  00  12  
  0.000000 1  221         Rx d 4  36  00  00  19  
  0.000000 1  294         Rx d 8  00  16  00  00  F3  AE  00  17  
  0.000000 1  295         Rx d 4  00  00  00  17  
  0.000000 1  091         Rx d 8  80  19  C8  02  00  00  00  9D  
  0.000000 1  156         Rx d 6  00  75  00  00  07  27  
  0.000000 1  071         Rx d 8  00  00  64  60  35  00  00  08  
  0.000000 1  072         Rx d 8  00  00  00  00  00  4E  20  0B  
  0.000000 1  158         Rx d 8  00  00  00  00  00  00  00  0A  
  0.000000 1  191         Rx d 8  01  00  80  A1  35  01  7F  0A  
  0.000000 1  19D         Rx d 8  00  60  06  00  11  00  00  03  
  0.000000 1  130         Rx d 8  00  00  00  00  00  00  00  31  
  0.000000 1  10F         Rx d 8  00  61  0F  00  00  00  00  7B  
  0.000000 1  17C         Rx d 8  00  00  00  00  10  00  00  7C  
  0.000000 1  13C         Rx d 8  FF  AB  00  06  00  00  00  3C  
  0.000000 1  116         Rx d 8  80  00  55  00  00  00  06  35  
  0.000000 1  1C7         Rx d 8  1D  C0  10  5A  A3  A3  00  3D  
  0.000000 1  1DC         Rx d 7  40  00  00  00  00  00  28  
  0.000000 1  091         Rx d 8  80  19  C8  02  00  00  00  AC  
  0.000000 1  1A4         Rx d 8  00  66  00  F0  00  00  00  3B  
  0.000000 1  1AC         Rx d 8  7F  FF  00  00  00  00  00  3A  
  0.000000 1  156         Rx d 6  00  75  00  00  07  36  
  0.000000 1  1B0         Rx d 7  00  0F  00  00  00  00  3A  
  0.000000 1  1D0         Rx d 8  00  00  00  00  00  00  00  0A  
  0.000000 1  1EA         Rx d 8  00  00  00  00  00  00  00  3C  
  0.000000 1  039         Rx d 3  00  80  13  
  0.000000 1  071         Rx d 8  00  00  64  60  37  00  00  15  
  0.000000 1  072         Rx d 8  00  00  00  00  00  4E  20  1A  
  0.000000 1  158         Rx d 8  00  00  00  00  00  00  00  19  
  0.000000 1  191         Rx d 8  01  00  80  A1  37  01  7F  17  
  0.000000 1  19D         Rx d 8  00  60  06  00  11  00  00  12  
  0.000000 1  130         Rx d 8  00  00  00  00  00  00  00  04  
  0.000000 1  10F         Rx d 8  00  61  0E  00  00  00  00  4F  
  0.000000 1  17C         Rx d 8  00  00  00  00  10  00  00  4F  
  0.000000 1  13C         Rx d 8  FF  AB  00  06  00  00  00  0F  
  0.000000 1  116         Rx d 8  80  00  55  00  00  00  06  08  
  0.000000 1  1AB         Rx d 3  80  00  73  
  0.000000 1  1C7         Rx d 8  1D  C0  10  5A  A3  A3  00  00  
  0.000000 1  1A6         Rx d 8  04  00  C0  5D  3E  01  00  21  
  0.000000 1  091         Rx d 8  80  19  C8  02  00  00  00  BB  
  0.000000 1  156         Rx d 6  00  75  00  00  07  09  
  0.000000 1  071         Rx d 8  00  00  64  60  39  00  00  22  
  0.000000 1  072         Rx d 8  00  00  00  00  00  4E  20  29  
  0.000000 1  158         Rx d 8  00  00  00  00  00  00  00  28  
  0.000000 1  191         Rx d 8  01  00  80  A1  39  01  7F  24  
  0.000000 1  19D         Rx d 8  00  60  06  00  11  00  00  21  
  0.000000 1  403         Rx d 5  00  00  02  00  1E  
  0.000000 1  40F         Rx d 8  10  11  00  00  08  00  00  19  
  0.000000 1  130         Rx d 8  00  00  00  00  00  00  00  13  
  0.000000 1  41B         Rx d 3  44  00  1F  
  0.000000 1  10F         Rx d 8  00  61  0E  00  00  00  00  5E  
  0.000000 1  17C         Rx d 8  00  00  00  00  10  00  00  5E  
  0.000000 1  13C         Rx d 8  FF  AB  00  06  00  00  00  1E  
  0.000000 1  116         Rx d 8  80  00  55  00  00  00  06  17  
  0.000000 1  1C7         Rx d 8  1D  C0  18  5A  A3  A3  00  17  
  0.000000 1  1DC         Rx d 7  40  00  00  00  00  00  37  
  0.000000 1  091         Rx d 8  80  19  C8  02  00  00  00  8E  
  0.000000 1  1A4         Rx d 8  00  66  00  F0  00  00  00  0E  
  0.000000 1  1AC         Rx d 8  7F  FF  00  00  00  00  00  0D  
  0.000000 1  156         Rx d 6  00  75  00  00  07  18  
  0.000000 1  1B0         Rx d 7  00  0F  00  00  00  00  0D  
  0.000000 1  1D0         Rx d 8  00  00  00  00  00  00  00  0A  
  0.000000 1  1EA         Rx d 8  00  00  00  00  00  00  00  0F  
  0.000000 1  255         Rx d 8  00  00  00  00  55  55  08  4E  
  0.000000 1  071         Rx d 8  00  00  64  60  3B  00  00  3F  
  0.000000 1  072         Rx d 8  00  00  00  00  00  4E  20  38  
  0.000000 1  158         Rx d 8  00  00  00  00  00  00  00  37  
  0.000000 1  191         Rx d 8  01  00  80  A1  3B  01  7F  31  
  0.000000 1  19D         Rx d 8  00  60  06  00  11  00  00  30  
  0.000000 1  130         Rx d 8  00  00  00  00  00  00  00  22  
  0.000000 1  10F         Rx d 8  00  61  0D  00  00  00  00  6E  
  0.000000 1  17C         Rx d 8  00  00  00  00  10  00  00  6D  
  0.000000 1  13C         Rx d 8  FF  AB  00  06  00  00  00  2D  
  0.000000 1  1AB         Rx d 3  80  00  46  
  0.000000 1  116         Rx d 8  80  00  55  00  00  00  06  26  
  0.000000 1  1C7         Rx d 8  1D  C0  18  5A  A3  A3  00  26  
  0.000000 1  1A6         Rx d 8  04  00  C0  5D  3E  01  00  30  
  0.000000 1  221         Rx d 4  36  00  00  28  
  0.000000 1  294         Rx d 8  00  16  00  00  F3  AE  00  26  
  0.000000 1  295         Rx d 4  00  00  00  26  
  0.000000 1  091         Rx d 8  80  19  C8  02  00  00  00  9D  
  0.000000 1  156         Rx d 6  00  75  00  00  07  27  
  0.000000 1  071         Rx d 8  00  00  64  60  3D  00  00  00  
  0.000000 1  072         Rx d 8  00  00  00  00  00  4E  20  0B  
  0.000000 1  158         Rx d 8  00  00  00  00  00  00  00  0A  
  0.000000 1  191         Rx d 8  01  00  80  A1  3D  01  7F  02  
  0.000000 1  19D         Rx d 8  00  60  06  00  11  00  00  03  
  0.000000 1  130         Rx d 8  00  00  00  00  00  00  00  31  
  0.000000 1  10F         Rx d 8  00  61  0D  00  00  00  00  7D  
  0.000000 1  17C         Rx d 8  00  00  00  00  10  00  00  7C  
  0.000000 1  13C         Rx d 8  FF  AB  00  06  00  00  00  3C  
  0.000000 1  116         Rx d 8  80  00  55  00  00  00  06  35  
  0.000000 1  1C7         Rx d 8  1D  C0  18  5A  A3  A3  00  35  
  0.000000 1  1DC         Rx d 7  40  00  00  00  00  00  0A  
  0.000000 1  091         Rx d 8  80  19  C8  02  00  00  00  AC  
  0.000000 1  1A4         Rx d 8  00  66  00  F0  00  00  00  1D  
  0.000000 1  156         Rx d 6  00  75  00  00  07  36  
  0.000000 1  1AC         Rx d 8  7F  FF  00  00  00  00  00  1C  
  0.000000 1  1B0         Rx d 7  00  0F  00  00  00  00  1C  
  0.000000 1  1D0         Rx d 8  00  00  00  00  00  00  00  0A  
  0.000000 1  1EA         Rx d 8  00  00  00  00  00  00  00  1E  
  0.000000 1  039         Rx d 3  00  80  22  
  0.000000 1  320         Rx d 8  00  00  00  00  00  00  00  03  
  0.000000 1  3D7         Rx d 8  10  00  00  00  00  00  00  6A  
  0.000000 1  324         Rx d 8  45  46  00  00  00  00  0A  02  
  0.000000 1  328         Rx d 8  00  00  00  00  00  40  00  07  
  0.000000 1  071         Rx d 8  00  00  64  60  3F  00  00  1D  
  0.000000 1  072         Rx d 8  00  00  00  00  00  4E  20  1A  
  0.000000 1  158         Rx d 8  00  00  00  00  00  00  00  19  
  0.000000 1  191         Rx d 8  01  00  80  A1  3F  01  7F  1F  
  0.000000 1  19D         Rx d 8  00  60  06  00  11  00  00  12  
  0.000000 1  454         Rx d 8  00  F9  00  00  00  00  00  12  
  0.000000 1  130         Rx d 8  00  00  00  00  00  00  00  04  
  0.000000 1  10F         Rx d 8  00  61  0D  00  00  00  00  40  
  0.000000 1  17C         Rx d 8  00  00  00  00  10  00  00  4F  
  0.000000 1  1AB         Rx d 3  80  00  55  
  0.000000 1  13C         Rx d 8  FF  AB  00  06  00  00  00  0F  
  0.000000 1  465         Rx d 8  00  00  00  00  00  00  01  17  
  0.000000 1  467         Rx d 2  00  16  
  0.000000 1  40C         Rx d 8  00  00  00  00  04  00  00  13  
  0.000000 1  1A6         Rx d 8  04  00  C0  5D  3E  01  00  03  
  0.000000 1  116         Rx d 8  80  00  55  00  00  00  06  08  
  0.000000 1  1C7         Rx d 8  1D  C0  18  5A  A3  A3  00  08  
  0.000000 1  402         Rx d 8  00  F0  00  00  00  00  00  12  
  0.000000 1  407         Rx d 8  00  00  00  00  00  00  00  1C  
  0.000000 1  408         Rx d 8  45  00  00  00  00  00  00  12  
  0.000000 1  091         Rx d 8  80  19  C8  02  00  00  00  BB  
  0.000000 1  156         Rx d 6  00  75  00  00  07  09  
  0.000000 1  071         Rx d 8  00  00  64  60  41  00  00  29  
  0.000000 1  072         Rx d 8  00  00  00  00  00  4E  20  29  
  0.000000 1  158         Rx d 8  00  00  00  00  00  00  00  28  
  0.000000 1  191         Rx d 8  01  00  80  A1  41  01  7F  2B  
  0.000000 1  19D         Rx d 8  00  60  06  00  11  00  00  21  
  0.000000 1  130         Rx d 8  00  00  00  00  00  00  00  13  
  0.000000 1  10F         Rx d 8  00  61  0D  00  00  00  00  5F  
  0.000000 1  17C         Rx d 8  00  00  00  00  10  00  00  5E  
  0.000000 1  13C         Rx d 8  FF  AB  00  06  00  00  00  1E  
  0.000000 1  116         Rx d 8  80  00  55  00  00  00  06  17  
  0.000000 1  1C7         Rx d 8  1D  C0  18  5A  A3  A3  00  17  
  0.000000 1  1DC         Rx d 7  40  00  00  00  00  00  19  
  0.000000 1  091         Rx d 8  80  19  C8  02  00  00  00  8E  
  0.000000 1  1A4         Rx d 8  00  66  00  F0  00  00  00  2C  
  0.000000 1  156         Rx d 6  00  75  00  00  07  18  
  0.000000 1  1AC         Rx d 8  7F  FF  00  00  00  00  00  2B  
  0.000000 1  1B0         Rx d 7  00  0F  00  00  00  00  2B  
  0.000000 1  1D0         Rx d 8  00  00  00  00  00  00  00  0A  
  0.000000 1  1EA         Rx d 8  00  00  00  00  00  00  00  2D  
  0.000000 1  255         Rx d 8  00  00  00  00  55  55  09  4D  
  0.000000 1  071         Rx d 8  00  00  64  60  43  00  00  36  
  0.000000 1  072         Rx d 8  00  00  00  00  00  4E  20  38  
  0.000000 1  158         Rx d 8  00  00  00  00  00  00  00  37  
  0.000000 1  191         Rx d 8  01  00  80  A1  43  01  7F  38  
  0.000000 1  19D         Rx d 8  00  60  06  00  11  00  00  30  
  0.000000 1  130         Rx d 8  00  00  00  00  00  00  00  22  
  0.000000 1  10F         Rx d 8  00  61  0D  00  00  00  00  6E  
  0.000000 1  17C         Rx d 8  00  00  00  00  10  00  00  6D  
  0.000000 1  13C         Rx d 8  FF  AB  00  06  00  00  00  2D  
  0.000000 1  1AB         Rx d 3  80  00  64  
  0.000000 1  116         Rx d 8  80  00  55  00  00  00  06  26  
  0.000000 1  1C7         Rx d 8  1D  C8  18  5A  A3  A3  00  2E  
  0.000000 1  1A6         Rx d 8  04  00  C0  5D  3F  01  00  11  
  0.000000 1  221         Rx d 4  36  00  00  37  
  0.000000 1  294         Rx d 8  00  16  00  00  F3  AE  00  35  
  0.000000 1  295         Rx d 4  00  00  00  35  
  0.000000 1  309         Rx d 8  00  00  00  00  00  00  00  57  
  0.000000 1  372         Rx d 2  00  1B  
  0.000000 1  374         Rx d 7  00  00  00  00  00  00  19  
  0.000000 1  378         Rx d 8  00  00  00  00  00  00  00  15  
  0.000000 1  37B         Rx d 8  40  00  00  28  00  00  00  14  
  0.000000 1  396         Rx d 7  00  00  3B  00  00  00  17  
  0.000000 1  3A1         Rx d 8  00  00  00  00  00  00  00  37  
  0.000000 1  091         Rx d 8  80  19  C8  02  00  00  00  9D  
  0.000000 1  156         Rx d 6  00  75  00  00  07  27  
  0.000000 1  071         Rx d 8  00  00  64  60  45  00  00  07  
  0.000000 1  072         Rx d 8  00  00  00  00  00  4E  20  0B  
  0.000000 1  158         Rx d 8  00  00  00  00  00  00  00  0A  
  0.000000 1  191         Rx d 8  01  00  80  A1  45  01  7F  09  
  0.000000 1  19D         Rx d 8  00  60  06  00  11  00  00  03  
  0.000000 1  130         Rx d 8  00  00  00  00  00  00  00  31  
  0.000000 1  10F         Rx d 8  00  61  0D  00  00  00  00  7D  
  0.000000 1  17C         Rx d 8  00  00  00  00  10  00  00  7C  
  0.000000 1  13C         Rx d 8  FF  AB  00  06  00  00  00  3C  
  0.000000 1  116         Rx d 8  80  00  55  00  00  00  06  35  
  0.000000 1  1C7         Rx d 8  1D  C0  18  5A  A3  A3  00  35  
  0.000000 1  305         Rx d 7  80  14  00  00  00  00  03  
  0.000000 1  1DC         Rx d 7  40  00  00  00  00  00  28  
  0.000000 1  091         Rx d 8  80  19  C8  02  00  00  00  AC  
  0.000000 1  156         Rx d 6  00  75  00  00  07  36  
  0.000000 1  1A4         Rx d 8  00  66  00  F0  00  00  00  3B  
  0.000000 1  1AC         Rx d 8  7F  FF  00  00  00  00  00  3A  
  0.000000 1  1B0         Rx d 7  00  0F  00  00  00  00  3A  
  0.000000 1  1D0         Rx d 8  00  00  00  00  00  00  00  0A  
  0.000000 1  1EA         Rx d 8  00  00  00  00  00  00  00  3C  
  0.000000 1  039         Rx d 3  00  80  31  
  0.000000 1  071         Rx d 8  00  00  64  60  46  00  00  15  
  0.000000 1  072         Rx d 8  00  00  00  00  00  4E  20  1A  
  0.000000 1  158         Rx d 8  00  00  00  00  00  00  00  19  
  0.000000 1  191         Rx d 8  01  00  80  A1  46  01  7F  17  
  0.000000 1  19D         Rx d 8  00  60  06  00  11  00  00  12  
  0.000000 1  130         Rx d 8  00  00  00  00  00  00  00  04  
  0.000000 1  10F         Rx d 8  00  61  0D  00  00  00  00  40  
  0.000000 1  17C         Rx d 8  00  00  00  00  10  00  00  4F  
  0.000000 1  13C         Rx d 8  FF  AB  00  06  00  00  00  0F  
  0.000000 1  1AB         Rx d 3  80  00  73  
  0.000000 1  116         Rx d 8  80  00  55  00  00  00  06  08  
  0.000000 1  1C7         Rx d 8  1D  C0  18  5A  A3  A3  00  08  
  0.000000 1  1A6         Rx d 8  04  00  C0  5D  3F  01  00  20  
  0.000000 1  091         Rx d 8  80  19  C8  02  00  00  00  BB  
  0.000000 1  156         Rx d 6  00  75  00  00  07  09  
  0.000000 1  071         Rx d 8  00  00  64  60  48  00  00  22  
  0.000000 1  072         Rx d 8  00  00  00  00  00  4E  20  29  
  0.000000 1  158         Rx d 8  00  00  00  00  00  00  00  28  
  0.000000 1  191         Rx d 8  01  00  80  A1  48  01  7F  24  
  0.000000 1  19D         Rx d 8  00  60  06  00  11  00  00  21  
  0.000000 1  130         Rx d 8  00  00  00  00  00  00  00  13  
  0.000000 1  10F         Rx d 8  00  61  0D  00  00  00  00  5F  
  0.000000 1  17C         Rx d 8  00  00  00  00  10  00  00  5E  
  0.000000 1  13C         Rx d 8  FF  AB  00  06  00  00  00  1E  
  0.000000 1  116         Rx d 8  80  00  55  00  00  00  06  17  
  0.000000 1  1C7         Rx d 8  1D  C0  18  5A  A3  A3  00  17  
  0.000000 1  1DC         Rx d 7  40  00  00  00  00  00  37  
  0.000000 1  091         Rx d 8  80  19  C8  02  00  00  00  8E  
  0.000000 1  1A4         Rx d 8  00  66  00  F0  00  00  00  0E  
  0.000000 1  156         Rx d 6  00  75  00  00  07  18  
  0.000000 1  1AC         Rx d 8  7F  FF  00  00  00  00  00  0D  
  0.000000 1  1B0         Rx d 7  00  0F  00  00  00  00  0D  
  0.000000 1  1D0         Rx d 8  00  00  00  00  00  00  00  0A  
  0.000000 1  1EA         Rx d 8  00  00  00  00  00  00  00  0F  
  0.000000 1  255         Rx d 8  00  00  00  00  55  55  0A  4C  
  0.000000 1  3D9         Rx d 3  00  8C  29  
  0.000000 1  071         Rx d 8  00  00  64  60  4A  00  00  3F  
  0.000000 1  072         Rx d 8  00  00  00  00  00  4E  20  38  
  0.000000 1  158         Rx d 8  00  00  00  00  00  00  00  37  
  0.000000 1  191         Rx d 8  01  00  80  A1  4A  01  7F  31  
  0.000000 1  19D         Rx d 8  00  60  06  00  11  00  00  30  
  0.000000 1  130         Rx d 8  00  00  00  00  00  00  00  22  
  0.000000 1  10F         Rx d 8  00  61  0D  00  00  00  00  6E  
  0.000000 1  17C         Rx d 8  00  00  00  00  10  00  00  6D  
  0.000000 1  13C         Rx d 8  FF  AB  00  06  00  00  00  2D  
  0.000000 1  1AB         Rx d 3  80  00  46  
  0.000000 1  116         Rx d 8  80  00  55  00  00  00  06  26  
  0.000000 1  1C7         Rx d 8  1D  C0  18  5A  A3  A3  00  26  
  0.000000 1  1A6         Rx d 8  04  00  C0  5D  3E  01  00  30  
  0.000000 1  221         Rx d 4  36  00  00  0A  
  0.000000 1  294         Rx d 8  00  16  00  00  F3  AE  00  08  
  0.000000 1  295         Rx d 4  00  00  00  08  
  0.000000 1  091         Rx d 8  80  19  C8  02  00  00  00  9D  
  0.000000 1  156         Rx d 6  00  75  00  00  07  27  
  0.000000 1  071         Rx d 8  00  00  64  60  4C  00  00  00  
  0.000000 1  072         Rx d 8  00  00  00  00  00  4E  20  0B  
  0.000000 1  158         Rx d 8  00  00  00  00  00  00  00  0A  
  0.000000 1  191         Rx d 8  01  00  80  A1  4C  01  7F  02  
  0.000000 1  19D         Rx d 8  00  60  06  00  11  00  00  03  
  0.000000 1  130         Rx d 8  00  00  00  00  00  00  00  31  
  0.000000 1  10F         Rx d 8  00  61  0D  00  00  00  00  7D  
  0.000000 1  17C         Rx d 8  00  00  00  00  10  00  00  7C  
  0.000000 1  13C         Rx d 8  FF  AB  00  06  00  00  00  3C  
  0.000000 1  116         Rx d 8  80  00  55  00  00  00  06  35  
  0.000000 1  1C7         Rx d 8  1D  C0  18  5A  A3  A3  00  35  
  0.000000 1  1DC         Rx d 7  40  00  00  00  00  00  0A  
  0.000000 1  091         Rx d 8  80  19  C8  02  00  00  00  AC  
  0.000000 1  1A4         Rx d 8  00  66  00  F0  00  00  00  1D  
  0.000000 1  156         Rx d 6  00  75  00  00  07  36  
  0.000000 1  1AC         Rx d 8  7F  FF  00  00  00  00  00  1C  
  0.000000 1  1B0         Rx d 7  00  0F  00  00  00  00  1C  
  0.000000 1  1D0         Rx d 8  00  00  00  00  00  00  00  0A  
  0.000000 1  1EA         Rx d 8  00  00  00  00  00  00  00  1E  
  0.000000 1  039         Rx d 3  00  80  04  
  0.000000 1  071         Rx d 8  00  00  64  60  4D  00  00  1E  
  0.000000 1  072         Rx d 8  00  00  00  00  00  4E  20  1A  
  0.000000 1  158         Rx d 8  00  00  00  00  00  00  00  19  
  0.000000 1  191         Rx d 8  01  00  80  A1  4D  01  7F  10  
  0.000000 1  19D         Rx d 8  00  60  06  00  11  00  00  12  
  0.000000 1  130         Rx d 8  00  00  00  00  00  00  00  04  
  0.000000 1  10F         Rx d 8  00  61  00  00  00  00  00  4D  
  0.000000 1  17C         Rx d 8  00  00  00  00  10  00  00  4F  
  0.000000 1  13C         Rx d 8  FF  AB  00  02  00  00  00  03  
  0.000000 1  1AB         Rx d 3  80  00  55  
  0.000000 1  116         Rx d 8  80  00  55  00  00  00  02  0C  
  0.000000 1  1C7         Rx d 8  1D  C8  18  5A  A3  A3  00  00  
  0.000000 1  1A6         Rx d 8  04  00  C0  5D  3E  01  00  03  
  0.000000 1  091         Rx d 8  80  19  C8  02  00  00  00  BB  
  0.000000 1  156         Rx d 6  00  75  00  00  07  09  
  0.000000 1  071         Rx d 8  00  00  64  60  4F  00  00  2B  
  0.000000 1  072         Rx d 8  00  00  00  00  00  4E  20  29  
  0.000000 1  158         Rx d 8  00  00  00  00  00  00  00  28  
  0.000000 1  191         Rx d 8  01  00  80  A1  4F  01  7F  2D  
  0.000000 1  19D         Rx d 8  00  60  06  00  11  00  00  21  
  0.000000 1  130         Rx d 8  00  00  00  00  00  00  00  13  
  0.000000 1  10F         Rx d 8  00  61  09  00  00  00  00  53  
  0.000000 1  17C         Rx d 8  00  00  00  00  10  00  00  5E  
  0.000000 1  13C         Rx d 8  FF  AB  00  02  00  00  00  12  
  0.000000 1  116         Rx d 8  80  00  55  00  00  00  02  1B  
  0.000000 1  1C7         Rx d 8  1D  C0  18  5A  A3  A3  00  17  
  0.000000 1  1DC         Rx d 7  40  00  00  00  00  00  19  
  0.000000 1  091         Rx d 8  80  19  C8  02  00  00  00  8E  
  0.000000 1  1A4         Rx d 8  00  66  00  F0  00  00  00  2C  
  0.000000 1  156         Rx d 6  00  75  00  00  07  18  
  0.000000 1  1AC         Rx d 8  7F  FF  00  00  00  00  00  2B  
  0.000000 1  1B0         Rx d 7  00  0F  00  00  00  00  2B  
  0.000000 1  1D0         Rx d 8  00  00  00  00  00  00  00  0A  
  0.000000 1  1EA         Rx d 8  00  00  00  00  00  00  00  2D  
  0.000000 1  255         Rx d 8  00  00  00  00  55  55  0B  4B  
  0.000000 1  320         Rx d 8  00  00  00  00  00  00  00  12  
  0.000000 1  324         Rx d 8  45  46  00  00  00  00  0A  11  
  0.000000 1  328         Rx d 8  00  00  00  00  00  40  00  16  
  0.000000 1  071         Rx d 8  00  00  64  60  51  00  00  37  
  0.000000 1  072         Rx d 8  00  00  00  00  00  4E  20  38  
  0.000000 1  158         Rx d 8  00  00  00  00  00  00  00  37  
  0.000000 1  191         Rx d 8  01  00  80  A1  51  01  7F  39  
  0.000000 1  19D         Rx d 8  00  20  02  00  11  00  00  38  
  0.000000 1  130         Rx d 8  00  00  00  00  00  00  00  22  
  0.000000 1  10F         Rx d 8  00  61  0A  00  00  00  00  61  
  0.000000 1  17C         Rx d 8  00  00  00  00  10  00  00  6D  
  0.000000 1  13C         Rx d 8  FF  AB  00  02  00  00  00  21  
  0.000000 1  1AB         Rx d 3  80  00  64  
  0.000000 1  116         Rx d 8  80  00  55  00  00  00  02  2A  
  0.000000 1  1C7         Rx d 8  1D  C0  18  5A  A3  A3  00  26  
  0.000000 1  1A6         Rx d 8  04  00  C0  5D  3E  01  00  12  
  0.000000 1  221         Rx d 4  36  00  00  19  
  0.000000 1  294         Rx d 8  00  16  00  00  F3  AE  00  17  
  0.000000 1  295         Rx d 4  00  00  00  17  
  0.000000 1  091         Rx d 8  80  19  C8  02  00  00  00  9D  
  0.000000 1  156         Rx d 6  00  75  00  00  07  27  
  0.000000 1  071         Rx d 8  00  00  64  60  52  00  00  09  
  0.000000 1  072         Rx d 8  00  00  00  00  00  4E  20  0B  
  0.000000 1  158         Rx d 8  00  00  00  00  00  00  00  0A  
  0.000000 1  191         Rx d 8  01  00  80  A1  52  01  7F  0B  
  0.000000 1  19D         Rx d 8  00  20  02  00  11  00  00  0B  
  0.000000 1  130         Rx d 8  00  00  00  00  00  00  00  31  
  0.000000 1  10F         Rx d 8  00  61  06  00  00  00  00  74  
  0.000000 1  17C         Rx d 8  00  00  00  00  10  00  00  7C  
  0.000000 1  13C         Rx d 8  FF  AB  00  02  00  00  00  30  
  0.000000 1  116         Rx d 8  80  00  55  00  00  00  02  39  
  0.000000 1  1C7         Rx d 8  1D  C0  18  5A  A3  A3  00  35  
  0.000000 1  1DC         Rx d 7  40  00  00  00  00  00  28  
  0.000000 1  091         Rx d 8  80  19  C8  02  00  00  00  AC  
  0.000000 1  1A4         Rx d 8  00  66  00  F0  00  00  00  3B  
  0.000000 1  156         Rx d 6  00  75  00  00  07  36  
  0.000000 1  1AC         Rx d 8  7F  FF  00  00  00  00  00  3A  
  0.000000 1  1B0         Rx d 7  00  0F  00  00  00  00  3A  
  0.000000 1  1D0         Rx d 8  00  00  00  00  00  00  00  0A  
  0.000000 1  1EA         Rx d 8  00  00  00  00  00  00  00  3C  
  0.000000 1  039         Rx d 3  00  80  13  
  0.000000 1  071         Rx d 8  00  00  64  60  54  00  00  16  
  0.000000 1  072         Rx d 8  00  00  00  00  00  4E  20  1A  
  0.000000 1  158         Rx d 8  00  00  00  00  00  00  00  19  
  0.000000 1  191         Rx d 8  01  00  80  A1  54  01  7F  18  
  0.000000 1  19D         Rx d 8  00  20  02  00  11  00  00  1A  
  0.000000 1  130         Rx d 8  00  00  00  00  00  00  00  04  
  0.000000 1  10F         Rx d 8  00  61  03  00  00  00  00  4A  
  0.000000 1  17C         Rx d 8  00  00  00  00  10  00  00  4F  
  0.000000 1  13C         Rx d 8  FF  AB  00  02  00  00  00  03  
  0.000000 1  1AB         Rx d 3  80  00  73  
  0.000000 1  116         Rx d 8  80  00  55  00  00  00  02  0C  
  0.000000 1  1C7         Rx d 8  1D  C0  18  5A  A3  A3  00  08  
  0.000000 1  1A6         Rx d 8  04  00  C0  5D  3E  01  00  21  
  0.000000 1  309         Rx d 8  00  00  00  00  00  00  00  66  
  0.000000 1  372         Rx d 2  00  2A  
  0.000000 1  374         Rx d 7  00  00  00  00  00  00  28  
  0.000000 1  378         Rx d 8  00  00  00  00  00  00  00  24  
  0.000000 1  37B         Rx d 8  40  00  00  28  00  00  00  23  
  0.000000 1  396         Rx d 7  00  00  3B  00  00  00  26  
  0.000000 1  510         Rx d 8  00  00  00  00  00  00  00  20  
  0.000000 1  091         Rx d 8  80  19  C8  02  00  00  00  BB  
  0.000000 1  156         Rx d 6  00  75  00  00  07  09  
  0.000000 1  071         Rx d 8  00  00  64  60  55  00  00  24  
  0.000000 1  072         Rx d 8  00  00  00  00  00  4E  20  29  
  0.000000 1  158         Rx d 8  00  00  00  00  00  00  00  28  
  0.000000 1  191         Rx d 8  01  00  80  A1  55  01  7F  26  
  0.000000 1  19D         Rx d 8  00  20  02  00  11  00  00  29  
  0.000000 1  130         Rx d 8  00  00  00  00  00  00  00  13  
  0.000000 1  10F         Rx d 8  00  61  04  00  00  00  00  58  
  0.000000 1  17C         Rx d 8  00  00  00  00  10  00  00  5E  
  0.000000 1  13C         Rx d 8  FF  AB  00  02  00  00  00  12  
  0.000000 1  116         Rx d 8  80  00  55  00  00  00  02  1B  
  0.000000 1  1C7         Rx d 8  1D  C0  18  5A  A3  A3  00  17  
  0.000000 1  305         Rx d 7  80  14  00  00  00  00  12  
  0.000000 1  1DC         Rx d 7  40  00  00  00  00  00  37  
  0.000000 1  091         Rx d 8  80  19  C8  02  00  00  00  8E  
  0.000000 1  1A4         Rx d 8  00  66  00  F0  00  00  00  0E  
  0.000000 1  156         Rx d 6  00  75  00  00  07  18  
  0.000000 1  1AC         Rx d 8  7F  FF  00  00  00  00  00  0D  
  0.000000 1  1B0         Rx d 7  00  0F  00  00  00  00  0D  
  0.000000 1  1D0         Rx d 8  00  00  00  00  00  00  00  0A  
  0.000000 1  1EA         Rx d 8  00  00  00  00  00  00  00  0F  
  0.000000 1  255         Rx d 8  00  00  00  00  55  55  0C  4A  
  0.000000 1  071         Rx d 8  00  00  64  60  57  00  00  31  
  0.000000 1  072         Rx d 8  00  00  00  00  00  4E  20  38  
  0.000000 1  158         Rx d 8  00  00  00  00  00  00  00  37  
  0.000000 1  191         Rx d 8  01  00  80  A1  57  01  7F  33  
  0.000000 1  19D         Rx d 8  00  20  02  00  11  00  00  38  
  0.000000 1  130         Rx d 8  00  00  00  00  00  00  00  22  
  0.000000 1  10F         Rx d 8  00  61  04  00  00  00  00  67  
  0.000000 1  17C         Rx d 8  00  00  00  00  10  00  00  6D  
  0.000000 1  1AB         Rx d 3  80  00  46  
  0.000000 1  13C         Rx d 8  FF  AB  00  02  00  00  00  21  
  0.000000 1  116         Rx d 8  80  00  55  00  00  00  02  2A  
  0.000000 1  1C7         Rx d 8  1D  C0  18  5A  A3  A3  00  26  
  0.000000 1  1A6         Rx d 8  04  00  C0  5D  3E  01  00  30  
  0.000000 1  221         Rx d 4  36  00  00  28  
  0.000000 1  294         Rx d 8  00  16  00  00  F3  AE  00  26  
  0.000000 1  295         Rx d 4  00  00  00  26  
  0.000000 1  091         Rx d 8  80  19  C8  02  00  00  00  9D  
  0.000000 1  156         Rx d 6  00  75  00  00  07  27  
  0.000000 1  071         Rx d 8  00  00  64  60  58  00  00  03  
  0.000000 1  072         Rx d 8  00  00  00  00  00  4E  20  0B  
  0.000000 1  158         Rx d 8  00  00  00  00  00  00  00  0A  
  0.000000 1  191         Rx d 8  01  00  80  A1  58  01  7F  05  
  0.000000 1  19D         Rx d 8  00  20  02  00  11  00  00  0B  
  0.000000 1  130         Rx d 8  00  00  00  00  00  00  00  31  
  0.000000 1  10F         Rx d 8  00  61  04  00  00  00  00  76  
  0.000000 1  17C         Rx d 8  00  00  00  00  10  00  00  7C  
  0.000000 1  13C         Rx d 8  FF  AB  00  02  00  00  00  30  
  0.000000 1  116         Rx d 8  80  00  55  00  00  00  02  39  
  0.000000 1  1C7         Rx d 8  1D  C0  18  5A  A3  A3  00  35  
  0.000000 1  1DC         Rx d 7  40  00  00  00  00  00  0A  
  0.000000 1  091         Rx d 8  80  19  C8  02  00  00  00  AC  
  0.000000 1  1A4         Rx d 8  00  66  00  F0  00  00  00  1D  
  0.000000 1  156         Rx d 6  00  75  00  00  07  36  
  0.000000 1  1AC         Rx d 8  7F  FF  00  00  00  00  00  1C  
  0.000000 1  1B0         Rx d 7  00  0F  00  00  00  00  1C  
  0.000000 1  1D0         Rx d 8  00  00  00  00  00  00  00  0A  
  0.000000 1  1EA         Rx d 8  00  00  00  00  00  00  00  1E  
  0.000000 1  039         Rx d 3  00  80  22  
  0.000000 1  071         Rx d 8  00  00  64  60  5A  00  00  10  
  0.000000 1  072         Rx d 8  00  00  00  00  00  4E  20  1A  
  0.000000 1  158         Rx d 8  00  00  00  00  00  00  00  19  
  0.000000 1  191         Rx d 8  01  00  80  A1  5A  01  7F  12  
  0.000000 1  19D         Rx d 8  00  20  02  00  11  00  00  1A  
  0.000000 1  130         Rx d 8  00  00  00  00  00  00  00  04  
  0.000000 1  10F         Rx d 8  00  61  04  00  00  00  00  49  
  0.000000 1  17C         Rx d 8  00  00  00  00  10  00  00  4F  
  0.000000 1  1AB         Rx d 3  80  00  55  
  0.000000 1  13C         Rx d 8  FF  AB  00  02  00  00  00  03  
  0.000000 1  116         Rx d 8  80  00  55  00  00  00  02  0C  
  0.000000 1  1C7         Rx d 8  1D  C0  18  5A  A3  A3  00  08  
  0.000000 1  1A6         Rx d 8  04  00  C0  5D  3E  01  00  03  
  0.000000 1  091         Rx d 8  80  19  C8  02  00  00  00  BB  
  0.000000 1  156         Rx d 6  00  75  00  00  07  09  
  0.000000 1  071         Rx d 8  00  00  64  60  5B  00  00  2E  
  0.000000 1  072         Rx d 8  00  00  00  00  00  4E  20  29  
  0.000000 1  158         Rx d 8  00  00  00  00  00  00  00  28  
  0.000000 1  191         Rx d 8  01  00  80  A1  5B  01  7F  20  
  0.000000 1  19D         Rx d 8  00  20  02  00  11  00  00  29  
  0.000000 1  130         Rx d 8  00  00  00  00  00  00  00  13  
  0.000000 1  10F         Rx d 8  00  61  04  00  00  00  00  58  
  0.000000 1  17C         Rx d 8  00  00  00  00  10  00  00  5E  
  0.000000 1  13C         Rx d 8  FF  AB  00  02  00  00  00  12  
  0.000000 1  116         Rx d 8  80  00  55  00  00  00  02  1B  
  0.000000 1  1C7         Rx d 8  1D  C0  18  5A  A3  A3  00  17  
  0.000000 1  1DC         Rx d 7  40  00  00  00  00  00  19  
  0.000000 1  091         Rx d 8  80  19  C8  02  00  00  00  8E  
  0.000000 1  1A4         Rx d 8  00  66  00  F0  00  00  00  2C  
  0.000000 1  156         Rx d 6  00  75  00  00  07  18  
  0.000000 1  1AC         Rx d 8  7F  FF  00  00  00  00  00  2B  
  0.000000 1  1B0         Rx d 7  00  0F  00  00  00  00  2B  
  0.000000 1  1D0         Rx d 8  00  00  00  00  00  00  00  0A  
  0.000000 1  1EA         Rx d 8  00  00  00  00  00  00  00  2D  
  0.000000 1  255         Rx d 8  00  00  00  00  55  55  0D  49  
  0.000000 1  071         Rx d 8  00  00  64  60  5D  00  00  3B  
  0.000000 1  072         Rx d 8  00  00  00  00  00  4E  20  38  
  0.000000 1  158         Rx d 8  00  00  00  00  00  00  00  37  
  0.000000 1  191         Rx d 8  01  00  80  A1  5D  01  7F  3D  
  0.000000 1  19D         Rx d 8  00  20  02  00  11  00  00  38  
  0.000000 1  130         Rx d 8  00  00  00  00  00  00  00  22  
  0.000000 1  10F         Rx d 8  00  61  04  00  00  00  00  67  
  0.000000 1  17C         Rx d 8  00  00  00  00  10  00  00  6D  
  0.000000 1  1AB         Rx d 3  80  00  64  
  0.000000 1  13C         Rx d 8  FF  AB  00  02  00  00  00  21  
  0.000000 1  116         Rx d 8  80  00  55  00  00  00  02  2A  
  0.000000 1  1C7         Rx d 8  1D  C0  18  5A  A3  A3  00  26  
  0.000000 1  1A6         Rx d 8  04  00  C0  5D  3E  01  00  12  
  0.000000 1  221         Rx d 4  36  00  00  37  
  0.000000 1  294         Rx d 8  00  16  00  00  F3  AE  00  35  
  0.000000 1  295         Rx d 4  00  00  00  35  
  0.000000 1  091         Rx d 8  80  19  C8  02  00  00  00  9D  
  0.000000 1  156         Rx d 6  00  75  00  00  07  27  
  0.000000 1  071         Rx d 8  00  00  64  60  5E  00  00  0D  
  0.000000 1  072         Rx d 8  00  00  00  00  00  4E  20  0B  
  0.000000 1  158         Rx d 8  00  00  00  00  00  00  00  0A  
  0.000000 1  191         Rx d 8  01  00  80  A1  5E  01  7F  0F  
  0.000000 1  19D         Rx d 8  00  20  02  00  11  00  00  0B  
  0.000000 1  130         Rx d 8  00  00  00  00  00  00  00  31  
  0.000000 1  10F         Rx d 8  00  61  04  00  00  00  00  76  
  0.000000 1  17C         Rx d 8  00  00  00  00  10  00  00  7C  
  0.000000 1  13C         Rx d 8  FF  AB  00  02  00  00  00  30  
  0.000000 1  116         Rx d 8  80  00  55  00  00  00  02  39  
  0.000000 1  1C7         Rx d 8  1D  C0  18  5A  A3  A3  00  35  
  0.000000 1  1DC         Rx d 7  40  00  00  00  00  00  28  
  0.000000 1  091         Rx d 8  80  19  C8  02  00  00  00  AC  
  0.000000 1  1A4         Rx d 8  00  66  00  F0  00  00  00  3B  
  0.000000 1  156         Rx d 6  00  75  00  00  07  36  
  0.000000 1  1AC         Rx d 8  7F  FF  00  00  00  00  00  3A  
  0.000000 1  1B0         Rx d 7  00  0F  00  00  00  00  3A  
  0.000000 1  1D0         Rx d 8  00  00  00  00  00  00  00  0A  
  0.000000 1  1EA         Rx d 8  00  00  00  00  00  00  00  3C  
  0.000000 1  039         Rx d 3  00  80  31  
  0.000000 1  320         Rx d 8  00  00  00  00  00  00  00  21  
  0.000000 1  3D7         Rx d 8  10  00  00  00  00  00  00  B5  
  0.000000 1  324         Rx d 8  45  46  00  00  00  00  0A  20  
  0.000000 1  071         Rx d 8  00  00  64  60  5F  00  00  1B  
  0.000000 1  072         Rx d 8  00  00  00  00  00  4E  20  1A  
  0.000000 1  158         Rx d 8  00  00  00  00  00  00  00  19  
  0.000000 1  191         Rx d 8  01  00  80  A1  5F  01  7F  1D  
  0.000000 1  19D         Rx d 8  00  20  02  00  11  00  00  1A  
  0.000000 1  328         Rx d 8  00  00  00  00  00  40  00  25  
  0.000000 1  130         Rx d 8  00  00  00  00  00  00  00  04  
  0.000000 1  10F         Rx d 8  00  61  04  00  00  00  00  49  
  0.000000 1  17C         Rx d 8  00  00  00  00  10  00  00  4F  
  0.000000 1  1AB         Rx d 3  80  00  73  
  0.000000 1  13C         Rx d 8  FF  AB  00  02  00  00  00  03  
  0.000000 1  116         Rx d 8  80  00  55  00  00  00  02  0C  
  0.000000 1  1C7         Rx d 8  1D  C0  18  5A  A3  A3  00  08  
  0.000000 1  1A6         Rx d 8  04  00  C0  5D  3E  01  00  21  
  0.000000 1  091         Rx d 8  80  19  C8  02  00  00  00  BB  
  0.000000 1  156         Rx d 6  00  75  00  00  07  09  
  0.000000 1  071         Rx d 8  00  00  64  60  61  00  00  27  
  0.000000 1  072         Rx d 8  00  00  00  00  00  4E  20  29  
  0.000000 1  158         Rx d 8  00  00  00  00  00  00  00  28  
  0.000000 1  191         Rx d 8  01  00  80  A1  61  01  7F  29  
  0.000000 1  19D         Rx d 8  00  20  02  00  11  00  00  29  
  0.000000 1  130         Rx d 8  00  00  00  00  00  00  00  13  
  0.000000 1  10F         Rx d 8  00  61  04  00  00  00  00  58  
  0.000000 1  17C         Rx d 8  00  00  00  00  10  00  00  5E  
  0.000000 1  13C         Rx d 8  FF  AB  00  02  00  00  00  12  
  0.000000 1  116         Rx d 8  80  00  55  00  00  00  02  1B  
  0.000000 1  1C7         Rx d 8  1D  C0  18  5A  A3  A3  00  17  
  0.000000 1  1DC         Rx d 7  40  00  00  00  00  00  37  
  0.000000 1  091         Rx d 8  80  19  C8  02  00  00  00  8E  
  0.000000 1  1A4         Rx d 8  00  66  00  F0  00  00  00  0E  
  0.000000 1  156         Rx d 6  00  75  00  00  07  18  
  0.000000 1  1AC         Rx d 8  7F  FF  00  00  00  00  00  0D  
  0.000000 1  1B0         Rx d 7  00  0F  00  00  00  00  0D  
  0.000000 1  1D0         Rx d 8  00  00  00  00  00  00  00  0A  
  0.000000 1  1EA         Rx d 8  00  00  00  00  00  00  00  0F  
  0.000000 1  255         Rx d 8  00  00  00  00  55  55  0E  48  
  0.000000 1  071         Rx d 8  00  00  64  60  62  00  00  35  
  0.000000 1  072         Rx d 8  00  00  00  00  00  4E  20  38  
  0.000000 1  158         Rx d 8  00  00  00  00  00  00  00  37  
  0.000000 1  191         Rx d 8  01  00  80  A1  62  01  7F  37  
  0.000000 1  19D         Rx d 8  00  20  02  00  11  00  00  38  
  0.000000 1  130         Rx d 8  00  00  00  00  00  00  00  22  
  0.000000 1  10F         Rx d 8  00  61  04  00  00  00  00  67  
  0.000000 1  17C         Rx d 8  00  00  00  00  10  00  00  6D  
  0.000000 1  1AB         Rx d 3  80  00  46  
  0.000000 1  13C         Rx d 8  FF  AB  00  02  00  00  00  21  
  0.000000 1  116         Rx d 8  80  00  55  00  00  00  02  2A  
  0.000000 1  1C7         Rx d 8  1D  C0  18  5A  A3  A3  00  26  
  0.000000 1  1A6         Rx d 8  04  00  C0  5D  3E  01  00  30  
  0.000000 1  221         Rx d 4  36  00  00  0A  
  0.000000 1  294         Rx d 8  00  16  00  00  F3  AE  00  08  
  0.000000 1  295         Rx d 4  00  00  00  08  
  0.000000 1  309         Rx d 8  00  00  00  00  00  00  00  75  
  0.000000 1  372         Rx d 2  00  39  
  0.000000 1  374         Rx d 7  00  00  00  00  00  00  37  
  0.000000 1  378         Rx d 8  00  00  00  00  00  00  00  33  
  0.000000 1  37B         Rx d 8  40  00  00  28  00  00  00  32  
  0.000000 1  396         Rx d 7  00  00  3B  00  00  00  35  
  0.000000 1  091         Rx d 8  80  19  C8  02  00  00  00  9D  
  0.000000 1  156         Rx d 6  00  75  00  00  07  27  
  0.000000 1  3A1         Rx d 8  00  00  00  00  00  00  00  0A  
  0.000000 1  428         Rx d 7  00  00  00  00  00  00  37  
  0.000000 1  071         Rx d 8  00  00  64  60  63  00  00  07  
  0.000000 1  072         Rx d 8  00  00  00  00  00  4E  20  0B  
  0.000000 1  158         Rx d 8  00  00  00  00  00  00  00  0A  
  0.000000 1  191         Rx d 8  01  00  80  A1  63  01  7F  09  
  0.000000 1  19D         Rx d 8  00  20  02  00  11  00  00  0B  
  0.000000 1  130         Rx d 8  00  00  00  00  00  00  00  31  
  0.000000 1  10F         Rx d 8  00  61  04  00  00  00  00  76  
  0.000000 1  17C         Rx d 8  00  00  00  00  10  00  00  7C  
  0.000000 1  13C         Rx d 8  FF  AB  00  02  00  00  00  30  
  0.000000 1  116         Rx d 8  80  00  55  00  00  00  02  39  
  0.000000 1  1C7         Rx d 8  1D  C8  18  5A  A3  A3  00  3D  
  0.000000 1  305         Rx d 7  80  14  00  00  00  00  21  
  0.000000 1  1DC         Rx d 7  40  00  00  00  00  00  0A  
  0.000000 1  091         Rx d 8  80  19  C8  02  00  00  00  AC  
  0.000000 1  1A4         Rx d 8  00  66  00  F0  00  00  00  1D  
  0.000000 1  156         Rx d 6  00  75  00  00  07  36  
  0.000000 1  1AC         Rx d 8  7F  FF  00  00  00  00  00  1C  
  0.000000 1  1B0         Rx d 7  00  0F  00  00  00  00  1C  
  0.000000 1  1D0         Rx d 8  00  00  00  00  00  00  00  0A  
  0.000000 1  1EA         Rx d 8  00  00  00  00  00  00  00  1E  
  0.000000 1  039         Rx d 3  00  80  04  
  0.000000 1  071         Rx d 8  00  00  64  60  65  00  00  14  
  0.000000 1  072         Rx d 8  00  00  00  00  00  4E  20  1A  
  0.000000 1  158         Rx d 8  00  00  00  00  00  00  00  19  
  0.000000 1  191         Rx d 8  01  00  80  A1  65  01  7F  16  
  0.000000 1  19D         Rx d 8  00  20  02  00  11  00  00  1A  
  0.000000 1  130         Rx d 8  00  00  00  00  00  00  00  04  
  0.000000 1  10F         Rx d 8  00  61  04  00  00  00  00  49  
  0.000000 1  17C         Rx d 8  00  00  00  00  10  00  00  4F  
  0.000000 1  1AB         Rx d 3  80  00  55  
  0.000000 1  13C         Rx d 8  FF  AB  00  02  00  00  00  03  
  0.000000 1  116         Rx d 8  80  00  55  00  00  00  02  0C  
  0.000000 1  1C7         Rx d 8  1D  C0  18  5A  A3  A3  00  08  
  0.000000 1  1A6         Rx d 8  04  00  C0  5D  3E  01  00  03  
  0.000000 1  091         Rx d 8  80  19  C8  02  00  00  00  BB  
  0.000000 1  156         Rx d 6  00  75  00  00  07  09  
  0.000000 1  071         Rx d 8  00  00  64  60  66  00  00  22  
  0.000000 1  072         Rx d 8  00  00  00  00  00  4E  20  29  
  0.000000 1  158         Rx d 8  00  00  00  00  00  00  00  28  
  0.000000 1  191         Rx d 8  01  00  80  A1  66  01  7F  24  
  0.000000 1  19D         Rx d 8  00  20  02  00  11  00  00  29  
  0.000000 1  130         Rx d 8  00  00  00  00  00  00  00  13  
  0.000000 1  10F         Rx d 8  00  61  04  00  00  00  00  58  
  0.000000 1  17C         Rx d 8  00  00  00  00  10  00  00  5E  
  0.000000 1  13C         Rx d 8  FF  AB  00  02  00  00  00  12  
  0.000000 1  116         Rx d 8  80  00  55  00  00  00  02  1B  
  0.000000 1  1C7         Rx d 8  1D  C0  18  5A  A3  A3  00  17  
  0.000000 1  1DC         Rx d 7  40  00  00  00  00  00  19  
  0.000000 1  091         Rx d 8  80  19  C8  02  00  00  00  8E  
  0.000000 1  1A4         Rx d 8  00  66  00  F0  00  00  00  2C  
  0.000000 1  156         Rx d 6  00  75  00  00  07  18  
  0.000000 1  1AC         Rx d 8  7F  FF  00  00  00  00  00  2B  
  0.000000 1  1B0         Rx d 7  00  0F  00  00  00  00  2B  
  0.000000 1  1D0         Rx d 8  00  00  00  00  00  00  00  0A  
  0.000000 1  1EA         Rx d 8  00  00  00  00  00  00  00  2D  
  0.000000 1  255         Rx d 8  00  00  00  00  55  55  0F  47  
  0.000000 1  3D9         Rx d 3  00  8C  38  
  0.000000 1  071         Rx d 8  00  00  64  60  67  00  00  30  
  0.000000 1  072         Rx d 8  00  00  00  00  00  4E  20  38  
  0.000000 1  158         Rx d 8  00  00  00  00  00  00  00  37  
  0.000000 1  191         Rx d 8  01  00  80  A1  67  01  7F  32  
  0.000000 1  19D         Rx d 8  00  20  02  00  11  00  00  38  
  0.000000 1  130         Rx d 8  00  00  00  00  00  00  00  22  
  0.000000 1  10F         Rx d 8  00  61  04  00  00  00  00  67  
  0.000000 1  17C         Rx d 8  00  00  00  00  10  00  00  6D  
  0.000000 1  1AB         Rx d 3  80  00  64  
  0.000000 1  13C         Rx d 8  FF  AB  00  02  00  00  00  21  
  0.000000 1  551         Rx d 5  00  00  00  04  27  
  0.000000 1  116         Rx d 8  80  00  55  00  00  00  02  2A  
  0.000000 1  1C7         Rx d 8  1D  C0  18  5A  A3  A3  00  26  
  0.000000 1  1A6         Rx d 8  04  00  C0  5D  3E  01  00  12  
  0.000000 1  221         Rx d 4  36  00  00  19  
  0.000000 1  294         Rx d 8  00  16  00  00  F3  AE  00  17  
  0.000000 1  295         Rx d 4  00  00  00  17  
  0.000000 1  091         Rx d 8  80  19  C8  02  00  00  00  9D  
  0.000000 1  156         Rx d 6  00  75  00  00  07  27  
  0.000000 1  071         Rx d 8  00  00  64  60  68  00  00  02  
  0.000000 1  072         Rx d 8  00  00  00  00  00  4E  20  0B  
  0.000000 1  158         Rx d 8  00  00  00  00  00  00  00  0A  
  0.000000 1  191         Rx d 8  01  00  80  A1  68  01  7F  04  
  0.000000 1  19D         Rx d 8  00  20  02  00  11  00  00  0B  
  0.000000 1  403         Rx d 5  00  00  02  00  2D  
  0.000000 1  40F         Rx d 8  11  41  17  00  00  02  00  22  
  0.000000 1  41B         Rx d 3  44  00  2E  
  0.000000 1  130         Rx d 8  00  00  00  00  00  00  00  31  
  0.000000 1  10F         Rx d 8  00  61  04  00  00  00  00  76  
  0.000000 1  17C         Rx d 8  00  00  00  00  10  00  00  7C  
  0.000000 1  13C         Rx d 8  FF  AB  00  02  00  00  00  30  
  0.000000 1  116         Rx d 8  80  00  55  00  00  00  02  39  
  0.000000 1  1C7         Rx d 8  1D  C8  18  5A  A3  A3  00  3D  
  0.000000 1  1DC         Rx d 7  40  00  00  00  00  00  28  
  0.000000 1  091         Rx d 8  80  19  C8  02  00  00  00  AC  
  0.000000 1  1A4         Rx d 8  00  66  00  F0  00  00  00  3B  
  0.000000 1  156         Rx d 6  00  75  00  00  07  36  
  0.000000 1  1AC         Rx d 8  7F  FF  00  00  00  00  00  3A  
  0.000000 1  1B0         Rx d 7  00  0F  00  00  00  00  3A  
  0.000000 1  1D0         Rx d 8  00  00  00  00  00  00  00  0A  
  0.000000 1  1EA         Rx d 8  00  00  00  00  00  00  00  3C  
  0.000000 1  039         Rx d 3  00  80  13  
  0.000000 1  071         Rx d 8  00  00  64  60  69  00  00  10  
  0.000000 1  072         Rx d 8  00  00  00  00  00  4E  20  1A  
  0.000000 1  158         Rx d 8  00  00  00  00  00  00  00  19  
  0.000000 1  191         Rx d 8  01  00  80  A1  69  01  7F  12  
  0.000000 1  19D         Rx d 8  00  20  02  00  11  00  00  1A  
  0.000000 1  130         Rx d 8  00  00  00  00  00  00  00  04  
  0.000000 1  10F         Rx d 8  00  61  04  00  00  00  00  49  
  0.000000 1  17C         Rx d 8  00  00  00  00  10  00  00  4F  
  0.000000 1  1AB         Rx d 3  80  00  73  
  0.000000 1  13C         Rx d 8  FF  AB  00  02  00  00  00  03  
  0.000000 1  116         Rx d 8  80  00  55  00  00  00  02  0C  
  0.000000 1  1C7         Rx d 8  1D  C0  18  5A  A3  A3  00  08  
  0.000000 1  1A6         Rx d 8  04  00  C0  5D  3E  01  00  21  
  0.000000 1  091         Rx d 8  80  19  C8  02  00  00  00  BB  
  0.000000 1  156         Rx d 6  00  75  00  00  07  09  
  0.000000 1  071         Rx d 8  00  00  64  60  6A  00  00  2E  
  0.000000 1  072         Rx d 8  00  00  00  00  00  4E  20  29  
  0.000000 1  158         Rx d 8  00  00  00  00  00  00  00  28  
  0.000000 1  191         Rx d 8  01  00  80  A1  6A  01  7F  20  
  0.000000 1  19D         Rx d 8  00  20  02  00  11  00  00  29  
  0.000000 1  130         Rx d 8  00  00  00  00  00  00  00  13  
  0.000000 1  10F         Rx d 8  00  61  04  00  00  00  00  58  
  0.000000 1  17C         Rx d 8  00  00  00  00  10  00  00  5E  
  0.000000 1  13C         Rx d 8  FF  AB  00  02  00  00  00  12  
  0.000000 1  116         Rx d 8  80  00  55  00  00  00  02  1B  
  0.000000 1  1C7         Rx d 8  1D  C0  18  5A  A3  A3  00  17  
  0.000000 1  1DC         Rx d 7  40  00  00  00  00  00  37  
  0.000000 1  091         Rx d 8  80  19  C8  02  00  00  00  8E  
  0.000000 1  1A4         Rx d 8  00  66  00  F0  00  00  00  0E  
  0.000000 1  156         Rx d 6  00  75  00  00  07  18  
  0.000000 1  1AC         Rx d 8  7F  FF  00  00  00  00  00  0D  
  0.000000 1  1B0         Rx d 7  00  0F  00  00  00  00  0D  
  0.000000 1  1D0         Rx d 8  00  00  00  00  00  00  00  0A  
  0.000000 1  1EA         Rx d 8  00  00  00  00  00  00  00  0F  
  0.000000 1  255         Rx d 8  00  00  00  00  55  55  10  46  
  0.000000 1  320         Rx d 8  00  00  00  00  00  00  00  30  
  0.000000 1  324         Rx d 8  45  46  00  00  00  00  0A  3F  
  0.000000 1  328         Rx d 8  00  00  00  00  00  40  00  34  
  0.000000 1  071         Rx d 8  00  00  64  60  6B  00  00  3C  
  0.000000 1  072         Rx d 8  00  00  00  00  00  4E  20  38  
  0.000000 1  158         Rx d 8  00  00  00  00  00  00  00  37  
  0.000000 1  191         Rx d 8  01  00  80  A1  6B  01  7F  3E  
  0.000000 1  19D         Rx d 8  00  20  02  00  11  00  00  38  
  0.000000 1  454         Rx d 8  00  F9  00  00  00  00  00  21  
  0.000000 1  465         Rx d 8  00  00  00  00  00  00  01  26  
  0.000000 1  130         Rx d 8  00  00  00  00  00  00  00  22  
  0.000000 1  10F         Rx d 8  00  61  04  00  00  00  00  67  
  0.000000 1  1AB         Rx d 3  80  00  46  
  0.000000 1  17C         Rx d 8  00  00  00  00  10  00  00  6D  
  0.000000 1  13C         Rx d 8  FF  AB  00  02  00  00  00  21  
  0.000000 1  467         Rx d 2  00  25  
  0.000000 1  40C         Rx d 8  01  39  33  48  47  4B  35  25  
  0.000000 1  116         Rx d 8  80  00  55  00  00  00  02  2A  
  0.000000 1  1C7         Rx d 8  1D  C0  18  5A  A3  A3  00  26  
  0.000000 1  402         Rx d 8  00  F0  00  00  00  00  00  21  
  0.000000 1  1A6         Rx d 8  04  00  C0  5D  3E  01  00  30  
  0.000000 1  221         Rx d 4  36  00  00  28  
  0.000000 1  294         Rx d 8  00  16  00  00  F3  AE  00  26  
  0.000000 1  295         Rx d 4  00  00  00  26  
  0.000000 1  407         Rx d 8  00  00  00  00  00  00  00  2B  
  0.000000 1  408         Rx d 8  45  00  00  00  00  00  00  21  
  0.000000 1  091         Rx d 8  80  19  C8  02  00  00  00  9D  
  0.000000 1  156         Rx d 6  00  75  00  00  07  27  
  0.000000 1  071         Rx d 8  00  00  64  60  6C  00  00  0E  
  0.000000 1  072         Rx d 8  00  00  00  00  00  4E  20  0B  
  0.000000 1  158         Rx d 8  00  00  00  00  00  00  00  0A  
  0.000000 1  191         Rx d 8  01  00  80  A1  6C  01  7F  00  
  0.000000 1  19D         Rx d 8  00  20  02  00  11  00  00  0B  
  0.000000 1  130         Rx d 8  00  00  00  00  00  00  00  31  
  0.000000 1  10F         Rx d 8  00  61  04  00  00  00  00  76  
  0.000000 1  17C         Rx d 8  00  00  00  00  10  00  00  7C  
  0.000000 1  13C         Rx d 8  FF  AB  00  02  00  00  00  30  
  0.000000 1  116         Rx d 8  80  00  55  00  00  00  02  39  
  0.000000 1  1C7         Rx d 8  1D  C0  18  5A  A3  A3  00  35  
  0.000000 1  1DC         Rx d 7  40  00  00  00  00  00  0A  
  0.000000 1  091         Rx d 8  80  19  C8  02  00  00  00  AC  
  0.000000 1  1A4         Rx d 8  00  66  00  F0  00  00  00  1D  
  0.000000 1  156         Rx d 6  00  75  00  00  07  36  
  0.000000 1  1AC         Rx d 8  7F  FF  00  00  00  00  00  1C  
  0.000000 1  1B0         Rx d 7  00  0F  00  00  00  00  1C  
  0.000000 1  1D0         Rx d 8  00  00  00  00  00  00  00  0A  
  0.000000 1  1EA         Rx d 8  00  00  00  00  00  00  00  1E  
  0.000000 1  039         Rx d 3  00  80  22  
  0.000000 1  071         Rx d 8  00  00  64  60  6E  00  00  1B  
  0.000000 1  072         Rx d 8  00  00  00  00  00  4E  20  1A  
  0.000000 1  158         Rx d 8  00  00  00  00  00  00  00  19  
  0.000000 1  191         Rx d 8  01  00  80  A1  6E  01  7F  1D  
  0.000000 1  19D         Rx d 8  00  20  02  00  11  00  00  1A  
  0.000000 1  130         Rx d 8  00  00  00  00  00  00  00  04  
  0.000000 1  10F         Rx d 8  00  61  04  00  00  00  00  49  
  0.000000 1  17C         Rx d 8  00  00  00  00  10  00  00  4F  
  0.000000 1  1AB         Rx d 3  80  00  55  
  0.000000 1  13C         Rx d 8  FF  AB  00  02  00  00  00  03  
  0.000000 1  116         Rx d 8  80  00  55  00  00  00  02  0C  
  0.000000 1  1C7         Rx d 8  1D  C0  18  5A  A3  A3  00  08  
  0.000000 1  1A6         Rx d 8  04  00  C0  5D  3E  01  00  03  
  0.000000 1  309         Rx d 8  00  00  00  00  00  00  00  48  
  0.000000 1  372         Rx d 2  00  0C  
  0.000000 1  374         Rx d 7  00  00  00  00  00  00  0A  
  0.000000 1  378         Rx d 8  00  00  00  00  00  00  00  06  
  0.000000 1  37B         Rx d 8  40  00  00  28  00  00  00  05  
  0.000000 1  396         Rx d 7  00  00  3B  00  00  00  08  
  0.000000 1  091         Rx d 8  80  19  C8  02  00  00  00  BB  
  0.000000 1  156         Rx d 6  00  75  00  00  07  09  
  0.000000 1  071         Rx d 8  00  00  64  60  6F  00  00  29  
  0.000000 1  072         Rx d 8  00  00  00  00  00  4E  20  29  
  0.000000 1  158         Rx d 8  00  00  00  00  00  00  00  28  
  0.000000 1  191         Rx d 8  01  00  80  A1  6F  01  7F  2B  
  0.000000 1  19D         Rx d 8  00  20  02  00  11  00  00  29  
  0.000000 1  130         Rx d 8  00  00  00  00  00  00  00  13  
  0.000000 1  10F         Rx d 8  00  61  04  00  00  00  00  58  
  0.000000 1  17C         Rx d 8  00  00  00  00  10  00  00  5E  
  0.000000 1  13C         Rx d 8  FF  AB  00  02  00  00  00  12  
  0.000000 1  116         Rx d 8  80  00  55  00  00  00  02  1B  
  0.000000 1  1C7         Rx d 8  1D  C0  18  5A  A3  A3  00  17  
  0.000000 1  305         Rx d 7  80  14  00  00  00  00  30  
  0.000000 1  1DC         Rx d 7  40  00  00  00  00  00  19  
  0.000000 1  091         Rx d 8  80  19  C8  02  00  00  00  8E  
  0.000000 1  1A4         Rx d 8  00  66  00  F0  00  00  00  2C  
  0.000000 1  156         Rx d 6  00  75  00  00  07  18  
  0.000000 1  1AC         Rx d 8  7F  FF  00  00  00  00  00  2B  
  0.000000 1  1B0         Rx d 7  00  0F  00  00  00  00  2B  
  0.000000 1  1D0         Rx d 8  00  00  00  00  00  00  00  0A  
  0.000000 1  1EA         Rx d 8  00  00  00  00  00  00  00  2D  
  0.000000 1  255         Rx d 8  00  00  00  00  55  55  11  45  
  0.000000 1  071         Rx d 8  00  00  64  60  70  00  00  36  
  0.000000 1  072         Rx d 8  00  00  00  00  00  4E  20  38  
  0.000000 1  158         Rx d 8  00  00  00  00  00  00  00  37  
  0.000000 1  191         Rx d 8  01  00  80  A1  70  01  7F  38  
  0.000000 1  19D         Rx d 8  00  20  02  00  11  00  00  38  
  0.000000 1  130         Rx d 8  00  00  00  00  00  00  00  22  
  0.000000 1  10F         Rx d 8  00  61  04  00  00  00  00  67  
  0.000000 1  1AB         Rx d 3  80  00  64  
  0.000000 1  17C         Rx d 8  00  00  00  00  10  00  00  6D  
  0.000000 1  13C         Rx d 8  FF  AB  00  02  00  00  00  21  
  0.000000 1  116         Rx d 8  80  00  55  00  00  00  02  2A  
  0.000000 1  1C7         Rx d 8  1D  C0  18  5A  A3  A3  00  26  
  0.000000 1  1A6         Rx d 8  04  00  C0  5D  3E  01  00  12  
  0.000000 1  221         Rx d 4  36  00  00  37  
  0.000000 1  294         Rx d 8  00  16  00  00  F3  AE  00  35  
  0.000000 1  295         Rx d 4  00  00  00  35  
  0.000000 1  091         Rx d 8  80  19  C8  02  00  00  00  9D  
  0.000000 1  156         Rx d 6  00  75  00  00  07  27  
  0.000000 1  071         Rx d 8  00  00  64  60  71  00  00  08  
  0.000000 1  072         Rx d 8  00  00  00  00  00  4E  20  0B  
  0.000000 1  158         Rx d 8  00  00  00  00  00  00  00  0A  
  0.000000 1  191         Rx d 8  01  00  80  A1  71  01  7F  0A  
  0.000000 1  19D         Rx d 8  00  20  02  00  11  00  00  0B  
  0.000000 1  130         Rx d 8  00  00  00  00  00  00  00  31  
  0.000000 1  10F         Rx d 8  00  61  04  00  00  00  00  76  
  0.000000 1  17C         Rx d 8  00  00  00  00  10  00  00  7C  
  0.000000 1  13C         Rx d 8  FF  AB  00  02  00  00  00  30  
  0.000000 1  116         Rx d 8  80  00  55  00  00  00  02  39  
  0.000000 1  1C7         Rx d 8  1D  C0  18  5A  A3  A3  00  35  
  0.000000 1  1DC         Rx d 7  40  00  00  00  00  00  28  
  0.000000 1  091         Rx d 8  80  19  C8  02  00  00  00  AC  
  0.000000 1  156         Rx d 6  00  75  00  00  07  36  
  0.000000 1  1A4         Rx d 8  00  66  00  F0  00  00  00  3B  
  0.000000 1  1AC         Rx d 8  7F  FF  00  00  00  00  00  3A  
  0.000000 1  1B0         Rx d 7  00  0F  00  00  00  00  3A  
  0.000000 1  1D0         Rx d 8  00  00  00  00  00  00  00  0A  
  0.000000 1  1EA         Rx d 8  00  00  00  00  00  00  00  3C  
  0.000000 1  039         Rx d 3  00  80  31  
  0.000000 1  071         Rx d 8  00  00  64  60  72  00  00  16  
  0.000000 1  072         Rx d 8  00  00  00  00  00  4E  20  1A  
  0.000000 1  158         Rx d 8  00  00  00  00  00  00  00  19  
  0.000000 1  191         Rx d 8  01  00  80  A1  72  01  7F  18  
  0.000000 1  19D         Rx d 8  00  20  02  00  11  00  00  1A  
  0.000000 1  130         Rx d 8  00  00  00  00  00  00  00  04  
  0.000000 1  10F         Rx d 8  00  61  04  00  00  00  00  49  
  0.000000 1  1AB         Rx d 3  80  00  73  
  0.000000 1  17C         Rx d 8  00  00  00  00  10  00  00  4F  
  0.000000 1  13C         Rx d 8  FF  AB  00  02  00  00  00  03  
  0.000000 1  116         Rx d 8  80  00  55  00  00  00  02  0C  
  0.000000 1  1C7         Rx d 8  1D  C0  18  5A  A3  A3  00  08  
  0.000000 1  1A6         Rx d 8  04  00  C0  5D  3E  01  00  21  
  0.000000 1  091         Rx d 8  80  19  C8  02  00  00  00  BB  
  0.000000 1  156         Rx d 6  00  75  00  00  07  09  
  0.000000 1  071         Rx d 8  00  00  64  60  72  00  00  25  
  0.000000 1  072         Rx d 8  00  00  00  00  00  4E  20  29  
  0.000000 1  158         Rx d 8  00  00  00  00  00  00  00  28  
  0.000000 1  191         Rx d 8  01  00  80  A1  72  01  7F  27  
  0.000000 1  19D         Rx d 8  00  20  02  00  11  00  00  29  
  0.000000 1  130         Rx d 8  00  00  00  00  00  00  00  13  
  0.000000 1  10F         Rx d 8  00  61  04  00  00  00  00  58  
  0.000000 1  17C         Rx d 8  00  00  00  00  10  00  00  5E  
  0.000000 1  13C         Rx d 8  FF  AB  00  02  00  00  00  12  
  0.000000 1  116         Rx d 8  80  00  55  00  00  00  02  1B  
  0.000000 1  1C7         Rx d 8  1D  C0  18  5A  A3  A3  00  17  
  0.000000 1  1DC         Rx d 7  40  00  00  00  00  00  37  
  0.000000 1  091         Rx d 8  80  19  C8  02  00  00  00  8E  
  0.000000 1  1A4         Rx d 8  00  66  00  F0  00  00  00  0E  
  0.000000 1  156         Rx d 6  00  75  00  00  07  18  
  0.000000 1  1AC         Rx d 8  7F  FF  00  00  00  00  00  0D  
  0.000000 1  1B0         Rx d 7  00  0F  00  00  00  00  0D  
  0.000000 1  1D0         Rx d 8  00  00  00  00  00  00  00  0A  
  0.000000 1  1EA         Rx d 8  00  00  00  00  00  00  00  0F  
  0.000000 1  255         Rx d 8  00  00  00  00  55  55  12  44  
  0.000000 1  071         Rx d 8  00  00  64  60  73  00  00  33  
  0.000000 1  072         Rx d 8  00  00  00  00  00  4E  20  38  
  0.000000 1  158         Rx d 8  00  00  00  00  00  00  00  37  
  0.000000 1  191         Rx d 8  01  00  80  A1  73  01  7F  35  
  0.000000 1  19D         Rx d 8  00  20  02  00  11  00  00  38  
  0.000000 1  130         Rx d 8  00  00  00  00  00  00  00  22  
  0.000000 1  10F         Rx d 8  00  61  04  00  00  00  00  67  
  0.000000 1  1AB         Rx d 3  80  00  46  
  0.000000 1  17C         Rx d 8  00  00  00  00  10  00  00  6D  
  0.000000 1  13C         Rx d 8  FF  AB  00  02  00  00  00  21  
  0.000000 1  116         Rx d 8  80  00  55  00  00  00  02  2A  
  0.000000 1  1C7         Rx d 8  1D  C0  18  5A  A3  A3  00  26  
  0.000000 1  1A6         Rx d 8  04  00  C0  5D  3E  01  00  30  
  0.000000 1  221         Rx d 4  36  00  00  0A  
  0.000000 1  294         Rx d 8  00  16  00  00  F3  AE  00  08  
  0.000000 1  295         Rx d 4  00  00  00  08  
  0.000000 1  091         Rx d 8  80  19  C8  02  00  00  00  9D  
  0.000000 1  156         Rx d 6  00  75  00  00  07  27  
  0.000000 1  071         Rx d 8  00  00  64  60  74  00  00  05  
  0.000000 1  072         Rx d 8  00  00  00  00  00  4E  20  0B  
  0.000000 1  158         Rx d 8  00  00  00  00  00  00  00  0A  
  0.000000 1  191         Rx d 8  01  00  80  A1  74  01  7F  07  
  0.000000 1  19D         Rx d 8  00  20  02  00  11  00  00  0B  
  0.000000 1  130         Rx d 8  00  00  00  00  00  00  00  31  
  0.000000 1  10F         Rx d 8  00  61  04  00  00  00  00  76  
  0.000000 1  17C         Rx d 8  00  00  00  00  10  00  00  7C  
  0.000000 1  13C         Rx d 8  FF  AB  00  02  00  00  00  30  
  0.000000 1  116         Rx d 8  80  00  55  00  00  00  02  39  
  0.000000 1  1C7         Rx d 8  1D  C0  18  5A  A3  A3  00  35  
  0.000000 1  1DC         Rx d 7  40  00  00  00  00  00  0A  
  0.000000 1  091         Rx d 8  80  19  C8  02  00  00  00  AC  
  0.000000 1  1A4         Rx d 8  00  66  00  F0  00  00  00  1D  
  0.000000 1  156         Rx d 6  00  75  00  00  07  36  
  0.000000 1  1AC         Rx d 8  7F  FF  00  00  00  00  00  1C  
  0.000000 1  1B0         Rx d 7  00  0F  00  00  00  00  1C  
  0.000000 1  1D0         Rx d 8  00  00  00  00  00  00  00  0A  
  0.000000 1  1EA         Rx d 8  00  00  00  00  00  00  00  1E  
  0.000000 1  039         Rx d 3  00  80  04  
  0.000000 1  320         Rx d 8  00  00  00  00  00  00  00  03  
  0.000000 1  3D7         Rx d 8  10  00  00  00  00  00  00  C4  
  0.000000 1  071         Rx d 8  00  00  64  60  75  00  00  13  
  0.000000 1  072         Rx d 8  00  00  00  00  00  4E  20  1A  
  0.000000 1  158         Rx d 8  00  00  00  00  00  00  00  19  
  0.000000 1  191         Rx d 8  01  00  80  A1  75  01  7F  15  
  0.000000 1  19D         Rx d 8  00  20  02  00  11  00  00  1A  
  0.000000 1  324         Rx d 8  45  46  00  00  00  00  0A  02  
  0.000000 1  328         Rx d 8  00  00  00  00  00  40  00  07  
  0.000000 1  130         Rx d 8  00  00  00  00  00  00  00  04  
  0.000000 1  10F         Rx d 8  00  61  04  00  00  00  00  49  
  0.000000 1  1AB         Rx d 3  80  00  55  
  0.000000 1  17C         Rx d 8  00  00  00  00  10  00  00  4F  
  0.000000 1  13C         Rx d 8  FF  AB  00  02  00  00  00  03  
  0.000000 1  116         Rx d 8  80  00  55  00  00  00  02  0C  
  0.000000 1  1C7         Rx d 8  1D  C0  18  5A  A3  A3  00  08  
  0.000000 1  1A6         Rx d 8  04  00  C0  5D  3E  01  00  03  
  0.000000 1  091         Rx d 8  80  19  C8  02  00  00  00  BB  
  0.000000 1  156         Rx d 6  00  75  00  00  07  09  
  0.000000 1  071         Rx d 8  00  00  64  60  76  00  00  21  
  0.000000 1  072         Rx d 8  00  00  00  00  00  4E  20  29  
  0.000000 1  158         Rx d 8  00  00  00  00  00  00  00  28  
  0.000000 1  191         Rx d 8  01  00  80  A1  76  01  7F  23  
  0.000000 1  19D         Rx d 8  00  20  02  00  11  00  00  29  
  0.000000 1  130         Rx d 8  00  00  00  00  00  00  00  13  
  0.000000 1  10F         Rx d 8  00  61  04  00  00  00  00  58  
  0.000000 1  17C         Rx d 8  00  00  00  00  10  00  00  5E  
  0.000000 1  13C         Rx d 8  FF  AB  00  02  00  00  00  12  
  0.000000 1  116         Rx d 8  80  00  55  00  00  00  02  1B  
  0.000000 1  1C7         Rx d 8  1D  C0  18  5A  A3  A3  00  17  
  0.000000 1  1DC         Rx d 7  40  00  00  00  00  00  19  
  0.000000 1  091         Rx d 8  80  19  C8  02  00  00  00  8E  
  0.000000 1  1A4         Rx d 8  00  66  00  F0  00  00  00  2C  
  0.000000 1  156         Rx d 6  00  75  00  00  07  18  
  0.000000 1  1AC         Rx d 8  7F  FF  00  00  00  00  00  2B  
  0.000000 1  1B0         Rx d 7  00  0F  00  00  00  00  2B  
  0.000000 1  1D0         Rx d 8  00  00  00  00  00  00  00  0A  
  0.000000 1  1EA         Rx d 8  00  00  00  00  00  00  00  2D  
  0.000000 1  255         Rx d 8  00  00  00  00  55  55  13  43  
  0.000000 1  555         Rx d 5  00  00  00  00  18  
  0.000000 1  071         Rx d 8  00  00  64  60  77  00  00  3F  
  0.000000 1  072         Rx d 8  00  00  00  00  00  4E  20  38  
  0.000000 1  158         Rx d 8  00  00  00  00  00  00  00  37  
  0.000000 1  191         Rx d 8  01  00  80  A1  77  01  7F  31  
  0.000000 1  19D         Rx d 8  00  20  02  00  11  00  00  38  
  0.000000 1  130         Rx d 8  00  00  00  00  00  00  00  22  
  0.000000 1  10F         Rx d 8  00  61  04  00  00  00  00  67  
  0.000000 1  1AB         Rx d 3  80  00  64  
  0.000000 1  17C         Rx d 8  00  00  00  00  10  00  00  6D  
  0.000000 1  13C         Rx d 8  FF  AB  00  02  00  00  00  21  
  0.000000 1  116         Rx d 8  80  00  55  00  00  00  02  2A  
  0.000000 1  1C7         Rx d 8  1D  C0  18  5A  A3  A3  00  26  
  0.000000 1  1A6         Rx d 8  04  00  C0  5D  3F  01  00  11  
  0.000000 1  221         Rx d 4  36  00  00  19  
  0.000000 1  294         Rx d 8  00  16  00  00  F3  AE  00  17  
  0.000000 1  295         Rx d 4  00  00  00  17  
  0.000000 1  309         Rx d 8  00  00  00  00  00  00  00  57  
  0.000000 1  372         Rx d 2  00  1B  
  0.000000 1  374         Rx d 7  00  00  00  00  00  00  19  
  0.000000 1  378         Rx d 8  00  00  00  00  00  00  00  15  
  0.000000 1  091         Rx d 8  80  19  C8  02  00  00  00  9D  
  0.000000 1  156         Rx d 6  00  75  00  00  07  27  
  0.000000 1  37B         Rx d 8  40  00  00  28  00  00  00  14  
  0.000000 1  396         Rx d 7  00  00  3B  00  00  00  17  
  0.000000 1  3A1         Rx d 8  00  00  00  00  00  00  00  19  
  0.000000 1  071         Rx d 8  00  00  64  60  78  00  00  01  
  0.000000 1  072         Rx d 8  00  00  00  00  00  4E  20  0B  
  0.000000 1  158         Rx d 8  00  00  00  00  00  00  00  0A  
  0.000000 1  191         Rx d 8  01  00  80  A1  78  01  7F  03  
  0.000000 1  19D         Rx d 8  00  20  02  00  11  00  00  0B  
  0.000000 1  130         Rx d 8  00  00  00  00  00  00  00  31  
  0.000000 1  10F         Rx d 8  00  61  05  00  00  00  00  75  
  0.000000 1  17C         Rx d 8  00  00  00  00  10  00  00  7C  
  0.000000 1  13C         Rx d 8  FF  AB  00  02  00  00  00  30  
  0.000000 1  116         Rx d 8  80  00  55  00  00  00  02  39  
  0.000000 1  1C7         Rx d 8  1D  C0  18  5A  A3  A3  00  35  
  0.000000 1  305         Rx d 7  80  14  00  00  00  00  03  
  0.000000 1  1DC         Rx d 7  40  00  00  00  00  00  28  
  0.000000 1  091         Rx d 8  80  19  C8  02  00  00  00  AC  
